RTK.0> diag wholedump all

UART0 register dump:
(00002000) : 67000000, (00002004) : 05000000, (00002008) : 01000000
(0000200c) : 13000000, (00002010) : 0b000000, (00002014) : 60000000
(00002018) : 00000000,
Interrupt register dump:
(00003000) : 41000880, (00003004) : 00000000, (00003008) : 12010004
(0000300c) : 30000000, (00003010) : 00401111, (00003014) : 50400000
(00003018) : 00000000, (0000301c) : 00000000, (00003020) : 00000000
(00003024) : 00000000, (00003028) : 00000000, (0000302c) : 00000000
(00003030) : 00000000, (00003034) : 00000000, (00003038) : 00000000
(0000303c) : 00000000, (00003040) : 00000000, (00003044) : 00000000
(00003048) : 00000000, (0000304c) : 00000000, (00003050) : 00000000
(00003054) : 00000000, (00003058) : 00000000, (0000305c) : 00000000
(00003060) : 00000000, (00003064) : 00000000, (00003068) : 00000000
(0000306c) : 00000000, (00003070) : 00000000, (00003074) : 00000000
(00003078) : 00000000, (0000307c) : 00000000, (00003080) : 00000000
(00003084) : 00000000, (00003088) : 00000000, (0000308c) : 00000000
(00003090) : 00000000, (00003094) : 00000000, (00003098) : 00000000
(0000309c) : 00000000, (000030a0) : 00000000, (000030a4) : 00000000
(000030a8) : 00000000, (000030ac) : 00000000, (000030b0) : 00000000
(000030b4) : 00000000, (000030b8) : 00000000, (000030bc) : 00000000
(000030c0) : 00000000, (000030c4) : 00000000, (000030c8) : 00000000
(000030cc) : 00000000, (000030d0) : 00000000, (000030d4) : 00000000
(000030d8) : 00000000, (000030dc) : 00000000, (000030e0) : 00000000
(000030e4) : 00000000, (000030e8) : 00000000, (000030ec) : 00000000
(000030f0) : 00000000, (000030f4) : 00000000, (000030f8) : 00000000
(000030fc) : 00000000,
Timer/Counter register dump:
(00003200) : 0000445c, (00003204) : 00002780, (00003208) : 11000064
(0000320c) : 00100000, (00003210) : 0fffffff, (00003214) : 0b147ad8
(00003218) : 1100002c, (0000321c) : 00010000, (00003220) : 00000000
(00003224) : 00000000, (00003228) : 00000000, (0000322c) : 00000000
(00003230) : 00000000, (00003234) : 00000000, (00003238) : 00000000
(0000323c) : 00000000, (00003240) : 017d7840, (00003244) : 006f1636
(00003248) : 11000007, (0000324c) : 00100000, (00003250) : 00000000
(00003254) : 00000000, (00003258) : 00000000, (0000325c) : 00000000
(00003260) : 00000000, (00003264) : 00000000, (00003268) : 02800000
(0000326c) : 00000000, (00003270) : 00000000, (00003274) : 00000000
(00003278) : 00000000, (0000327c) : 00000000, (00003280) : 00000000
(00003284) : 00000000, (00003288) : 00000000, (0000328c) : 00000000
(00003290) : 00000000, (00003294) : 00000000, (00003298) : 00000000
(0000329c) : 00000000, (000032a0) : 00000000, (000032a4) : 00000000
(000032a8) : 00000000, (000032ac) : 00000000, (000032b0) : 00000000
(000032b4) : 00000000, (000032b8) : 00000000, (000032bc) : 00000000
(000032c0) : 00000000, (000032c4) : 00000000, (000032c8) : 00000000
(000032cc) : 00000000, (000032d0) : 00000000, (000032d4) : 00000000
(000032d8) : 00000000, (000032dc) : 00000000, (000032e0) : 00000000
(000032e4) : 00000000, (000032e8) : 00000000, (000032ec) : 00000000
(000032f0) : 00000000, (000032f4) : 00000000, (000032f8) : 00000000
(000032fc) : 00000000,
GPIO register dump:
(00003304) : 00000000, (00003308) : 004fc0ff, (0000330c) : 002fff7b
(00003310) : 00000000, (00003314) : 00000000, (00003318) : 00000000
(0000331c) : 00000000,

MAX_REG_IDX = 1308

REG-Idx(0000)[MODEL_NAME_INFO] bit_offset = 0:
Register 0x4 : 0x93030001

REG-Idx(0001)[CHIP_INFO] bit_offset = 0:
Register 0x8 : 0x00000000

REG-Idx(0002)[RST_GLB_CTRL_0] bit_offset = 0:
Register 0xc : 0x00005180

REG-Idx(0003)[RST_GLB_STS_0] bit_offset = 0:
Register 0x10 : 0x00000000

REG-Idx(0004)[RST_GLB_STS_1] bit_offset = 0:
Register 0x14 : 0x00000000

REG-Idx(0005)[RST_GLB_STS_2] bit_offset = 0:
Register 0x18 : 0x0000000c

REG-Idx(0006)[RST_GLB_STS_3] bit_offset = 0:
Register 0x1c : 0x00000200

REG-Idx(0007)[MAC_RST_DUR] bit_offset = 0:
Register 0x20 : 0x00000000

REG-Idx(0008)[PLL_GLB_CTRL0] bit_offset = 0:
Register 0xe200 : 0x0001c0ff

REG-Idx(0009)[PLL_GLB_CTRL1] bit_offset = 0:
Register 0xe204 : 0x0000023f

REG-Idx(0010)[PLL_CPU_CTRL0] bit_offset = 0:
Register 0xe208 : 0x000003e8

REG-Idx(0011)[PLL_CPU_CTRL1] bit_offset = 0:
Register 0xe20c : 0x00000001

REG-Idx(0012)[PLL_CPU_MISC_CTRL] bit_offset = 0:
Register 0xe210 : 0x6b439e23

REG-Idx(0013)[PLL_SW_CTRL0] bit_offset = 0:
Register 0xe214 : 0x000002f8

REG-Idx(0014)[PLL_SW_CTRL1] bit_offset = 0:
Register 0xe218 : 0x00000000

REG-Idx(0015)[PLL_SW_MISC_CTRL] bit_offset = 0:
Register 0xe21c : 0x00d6873c

REG-Idx(0016)[PLL_SW_DIV_CTRL] bit_offset = 0:
Register 0xe220 : 0x00028a26

REG-Idx(0017)[PLL_125M_CTRL0] bit_offset = 0:
Register 0xe224 : 0x00000308

REG-Idx(0018)[PLL_125M_CTRL1] bit_offset = 0:
Register 0xe228 : 0x0c000000

REG-Idx(0019)[PLL_125M_MISC_CTRL] bit_offset = 0:
Register 0xe22c : 0xe0d6873c

REG-Idx(0020)[PLL_BANDGAP_CTRL] bit_offset = 0:
Register 0xe280 : 0x00f7000f

REG-Idx(0021)[XTAL_CML_CTRL_] bit_offset = 0:
Register 0xe284 : 0x000036df

REG-Idx(0022)[PLL_CML_CTRL] bit_offset = 0:
Register 0xe230 : 0x000d0003

REG-Idx(0023)[DMY_REG0_CHIP_PLL] bit_offset = 0:
Register 0xe234 : 0x00000000

REG-Idx(0024)[MAC_BIST_MODE] bit_offset = 0:
Register 0x3a60 : 0x00000000

REG-Idx(0025)[MAC_DRF_BIST_MODE] bit_offset = 0:
Register 0x3a64 : 0x00000000

REG-Idx(0026)[MAC_BIST_RSTN] bit_offset = 0:
Register 0x3a68 : 0x00000000

REG-Idx(0027)[MAC_DRF_TEST_RESUME] bit_offset = 0:
Register 0x3a6c : 0x00000000

REG-Idx(0028)[MAC_GRXF0_RESULT] bit_offset = 32:
Register 0x3a70 : 0x00000000
Register 0x3a74 : 0x00000000
Register 0x3a78 : 0x00000000

REG-Idx(0029)[MAC_GTXF0_RESULT] bit_offset = 32:
Register 0x3a7c : 0x00000000
Register 0x3a80 : 0x00000000
Register 0x3a84 : 0x00000000

REG-Idx(0030)[MAC_TGRXF_RESULT] bit_offset = 32:
Register 0x3a88 : 0x00000000
Register 0x3a8c : 0x00000000
Register 0x3a90 : 0x00000000
Register 0x3a94 : 0x00000000
Register 0x3a98 : 0x00000000

REG-Idx(0031)[MAC_TGTXF_RESULT] bit_offset = 32:
Register 0x3a9c : 0x00000000
Register 0x3aa0 : 0x00000000
Register 0x3aa4 : 0x00000000
Register 0x3aa8 : 0x00000000
Register 0x3aac : 0x00000000

REG-Idx(0032)[MAC_GRXF1_RESULT0] bit_offset = 0:
Register 0x3ab0 : 0x00000000

REG-Idx(0033)[MAC_GTXF1_RESULT0] bit_offset = 0:
Register 0x3ab4 : 0x00000000

REG-Idx(0034)[MAC_DMY_RESULT] bit_offset = 0:
Register 0x3ab8 : 0x0000001e

REG-Idx(0035)[MAC_LBRXF_RESULT] bit_offset = 0:
Register 0x3abc : 0x00000000

REG-Idx(0036)[MAC_DRF_PAUSE] bit_offset = 0:
Register 0x3ac0 : 0x00000000

REG-Idx(0037)[MAC_GRXF0_GTXF0_SRAM_LS_EN] bit_offset = 32:
Register 0x3ac4 : 0x00000000
Register 0x3ac8 : 0x00000000
Register 0x3acc : 0x00000000

REG-Idx(0038)[MAC_GRXF0_GTXF0_TIMING_CFG_EN] bit_offset = 32:
Register 0x3ad0 : 0x00000000
Register 0x3ad4 : 0x00000000
Register 0x3ad8 : 0x00000000

REG-Idx(0039)[MAC_GRXF0_RMA] bit_offset = 32:
Register 0x3adc : 0x00000000
Register 0x3ae0 : 0x00000000
Register 0x3ae4 : 0x00000000

REG-Idx(0040)[MAC_GRXF0_RMB] bit_offset = 32:
Register 0x3ae8 : 0x00000000
Register 0x3aec : 0x00000000
Register 0x3af0 : 0x00000000

REG-Idx(0041)[MAC_GTXF0_RMA] bit_offset = 32:
Register 0x3af4 : 0x00000000
Register 0x3af8 : 0x00000000
Register 0x3afc : 0x00000000

REG-Idx(0042)[MAC_GTXF0_RMB] bit_offset = 32:
Register 0x3b00 : 0x00000000
Register 0x3b04 : 0x00000000
Register 0x3b08 : 0x00000000

REG-Idx(0043)[MAC_TGRXF_TGTXF_SRAM_LS_EN] bit_offset = 32:
Register 0x3b0c : 0x00000000
Register 0x3b10 : 0x00000000
Register 0x3b14 : 0x00000000
Register 0x3b18 : 0x00000000
Register 0x3b1c : 0x00000000

REG-Idx(0044)[MAC_TGRXF_TGTXF_TIMING_CFG_EN] bit_offset = 32:
Register 0x3b20 : 0x00000000
Register 0x3b24 : 0x00000000
Register 0x3b28 : 0x00000000
Register 0x3b2c : 0x00000000
Register 0x3b30 : 0x00000000

REG-Idx(0045)[MAC_TGRXF_RMA] bit_offset = 32:
Register 0x3b34 : 0x00000000
Register 0x3b38 : 0x00000000
Register 0x3b3c : 0x00000000
Register 0x3b40 : 0x00000000
Register 0x3b44 : 0x00000000

REG-Idx(0046)[MAC_TGRXF_RMB] bit_offset = 32:
Register 0x3b48 : 0x00000000
Register 0x3b4c : 0x00000000
Register 0x3b50 : 0x00000000
Register 0x3b54 : 0x00000000
Register 0x3b58 : 0x00000000

REG-Idx(0047)[MAC_TGTXF_RMA] bit_offset = 32:
Register 0x3b5c : 0x00000000
Register 0x3b60 : 0x00000000
Register 0x3b64 : 0x00000000
Register 0x3b68 : 0x00000000
Register 0x3b6c : 0x00000000

REG-Idx(0048)[MAC_TGTXF_RMB] bit_offset = 32:
Register 0x3b70 : 0x00000000
Register 0x3b74 : 0x00000000
Register 0x3b78 : 0x00000000
Register 0x3b7c : 0x00000000
Register 0x3b80 : 0x00000000

REG-Idx(0049)[MAC_GRXF1_GTXF1_SRAM_LS_EN] bit_offset = 0:
Register 0x3b84 : 0x00000000

REG-Idx(0050)[MAC_GRXF1_GTXF1_TIMING_CFG_EN] bit_offset = 0:
Register 0x3b88 : 0x00000000

REG-Idx(0051)[MAC_GRXF1_RMA] bit_offset = 0:
Register 0x3b8c : 0x00000000

REG-Idx(0052)[MAC_GRXF1_RMB] bit_offset = 0:
Register 0x3b90 : 0x00000000

REG-Idx(0053)[MAC_GTXF1_RMA] bit_offset = 0:
Register 0x3b94 : 0x00000000

REG-Idx(0054)[MAC_GTXF1_RMB] bit_offset = 0:
Register 0x3b98 : 0x00000000

REG-Idx(0055)[MAC_DMY_SRAM_LS_EN] bit_offset = 0:
Register 0x3b9c : 0x00000000

REG-Idx(0056)[MAC_DMY_TIMING_CFG_EN] bit_offset = 0:
Register 0x3ba0 : 0x00000000

REG-Idx(0057)[MAC_DMY_RMA] bit_offset = 0:
Register 0x3ba4 : 0x00000000

REG-Idx(0058)[MAC_DMY_RMB] bit_offset = 0:
Register 0x3ba8 : 0x00000000

REG-Idx(0059)[MAC_LBRXF_SRAM_LS_EN] bit_offset = 0:
Register 0x3bac : 0x00000000

REG-Idx(0060)[MAC_LBRXF_TIMING_CFG_EN] bit_offset = 0:
Register 0x3bb0 : 0x00000000

REG-Idx(0061)[MAC_LBRXF_RMA] bit_offset = 0:
Register 0x3bb4 : 0x00000000

REG-Idx(0062)[MAC_LBRXF_RMB] bit_offset = 0:
Register 0x3bb8 : 0x00000000

REG-Idx(0063)[ALE_BIST_MODE0] bit_offset = 0:
Register 0xaa20 : 0x00000000

REG-Idx(0064)[ALE_BIST_MODE1] bit_offset = 0:
Register 0xaa24 : 0x00000000

REG-Idx(0065)[ALE_DRF_BIST_MODE0] bit_offset = 0:
Register 0xaa28 : 0x00000000

REG-Idx(0066)[ALE_DRF_BIST_MODE1] bit_offset = 0:
Register 0xaa2c : 0x00000000

REG-Idx(0067)[ALE_DRF_BIST_RESUME0] bit_offset = 0:
Register 0xaa30 : 0x00000000

REG-Idx(0068)[ALE_DRF_BIST_RESUME1] bit_offset = 0:
Register 0xaa34 : 0x00000000

REG-Idx(0069)[ALE_TIMING_CFG0] bit_offset = 0:
Register 0xaa38 : 0x00000000

REG-Idx(0070)[ALE_TIMING_CFG1] bit_offset = 0:
Register 0xaa3c : 0x00000000

REG-Idx(0071)[ALE_TIMING_CFG2] bit_offset = 0:
Register 0xaa40 : 0x00000000

REG-Idx(0072)[ALE_TIMING_CFG3] bit_offset = 0:
Register 0xaa44 : 0x00000000

REG-Idx(0073)[ALE_RM_0] bit_offset = 0:
Register 0xaa48 : 0x00000000

REG-Idx(0074)[ALE_RM_1] bit_offset = 0:
Register 0xaa4c : 0x00000000

REG-Idx(0075)[ALE_RM_2] bit_offset = 0:
Register 0xaa50 : 0x00000000

REG-Idx(0076)[ALE_RM_3] bit_offset = 0:
Register 0xaa54 : 0x00000000

REG-Idx(0077)[ALE_RM_4] bit_offset = 0:
Register 0xaa58 : 0x00000000

REG-Idx(0078)[ALE_RM_5] bit_offset = 0:
Register 0xaa5c : 0x00000000

REG-Idx(0079)[ALE_RM_6] bit_offset = 0:
Register 0xaa60 : 0x00000000

REG-Idx(0080)[ALE_RM_7] bit_offset = 0:
Register 0xaa64 : 0x00000000

REG-Idx(0081)[ALE_RM_8] bit_offset = 0:
Register 0xaa68 : 0x00000000

REG-Idx(0082)[ALE_RM_9] bit_offset = 0:
Register 0xaa6c : 0x00000000

REG-Idx(0083)[ALE_RM_10] bit_offset = 0:
Register 0xaa70 : 0x00000000

REG-Idx(0084)[ALE_RM_11] bit_offset = 0:
Register 0xaa74 : 0x00000000

REG-Idx(0085)[ALE_RM_12] bit_offset = 0:
Register 0xaa78 : 0x00000000

REG-Idx(0086)[ALE_RM_13] bit_offset = 0:
Register 0xaa7c : 0x00000000

REG-Idx(0087)[ALE_RM_14] bit_offset = 0:
Register 0xaa80 : 0x00000000

REG-Idx(0088)[ALE_RM_15] bit_offset = 0:
Register 0xaa84 : 0x00000000

REG-Idx(0089)[ALE_CAM_TIMING_MDS_0] bit_offset = 0:
Register 0xaa88 : 0x00000000

REG-Idx(0090)[ALE_CAM_TIMING_MDS_1] bit_offset = 0:
Register 0xaa8c : 0x00000000

REG-Idx(0091)[ALE_CAM_TIMING_MDS_3] bit_offset = 0:
Register 0xaa90 : 0x00000000

REG-Idx(0092)[ALE_CAM_TIMING_MDS_4] bit_offset = 0:
Register 0xaa94 : 0x00000000

REG-Idx(0093)[ALE_CAM_TIMING_MDS_5] bit_offset = 0:
Register 0xaa98 : 0x00000000

REG-Idx(0094)[ALE_CAM_TIMING_MDS_2] bit_offset = 0:
Register 0xaa9c : 0x00000000

REG-Idx(0095)[ALE_CAM_TIMING_RDS_0] bit_offset = 0:
Register 0xaaa0 : 0x33333333

REG-Idx(0096)[ALE_CAM_TIMING_RDS_1] bit_offset = 0:
Register 0xaaa4 : 0x33333333

REG-Idx(0097)[ALE_CAM_TIMING_RDS_2] bit_offset = 0:
Register 0xaaa8 : 0x33333333

REG-Idx(0098)[ALE_CAM_TIMING_RDS_3] bit_offset = 0:
Register 0xaaac : 0x33333333

REG-Idx(0099)[ALE_CAM_TIMING_RDS_6] bit_offset = 0:
Register 0xaab0 : 0x33333333

REG-Idx(0100)[ALE_CAM_TIMING_RDS_7] bit_offset = 0:
Register 0xaab4 : 0x33333333

REG-Idx(0101)[ALE_CAM_TIMING_RDS_4] bit_offset = 0:
Register 0xaab8 : 0x00333333

REG-Idx(0102)[ALE_CAM_TIMING_RDS_5] bit_offset = 0:
Register 0xaabc : 0x33333333

REG-Idx(0103)[ALE_BIST_DONE0] bit_offset = 0:
Register 0xaac0 : 0x00000000

REG-Idx(0104)[ALE_BIST_DONE1] bit_offset = 0:
Register 0xaac4 : 0x00000000

REG-Idx(0105)[ALE_DRF_BIST_PAUSE0] bit_offset = 0:
Register 0xaac8 : 0x00000000

REG-Idx(0106)[ALE_DRF_BIST_PAUSE1] bit_offset = 0:
Register 0xaacc : 0x00000000

REG-Idx(0107)[ALE_BIST_FAIL0] bit_offset = 0:
Register 0xaad0 : 0x00000000

REG-Idx(0108)[ALE_BIST_FAIL1] bit_offset = 0:
Register 0xaad4 : 0x00000000

REG-Idx(0109)[ALE_BIST_FAIL2] bit_offset = 0:
Register 0xaad8 : 0x00000000

REG-Idx(0110)[ALE_BIST_FAIL3] bit_offset = 0:
Register 0xaadc : 0x00000000

REG-Idx(0111)[ALE_BIST_FAIL4] bit_offset = 0:
Register 0xaae0 : 0x00000000

REG-Idx(0112)[ALE_BIST_FAIL5] bit_offset = 0:
Register 0xaae4 : 0x00000000

REG-Idx(0113)[ALE_DRF_BIST_DONE0] bit_offset = 0:
Register 0xaae8 : 0x00000000

REG-Idx(0114)[ALE_DRF_BIST_DONE1] bit_offset = 0:
Register 0xaaec : 0x00000000

REG-Idx(0115)[ALE_DRF_BIST_FAIL0] bit_offset = 0:
Register 0xaaf0 : 0x00000000

REG-Idx(0116)[ALE_DRF_BIST_FAIL1] bit_offset = 0:
Register 0xaaf4 : 0x00000000

REG-Idx(0117)[ALE_DRF_BIST_FAIL2] bit_offset = 0:
Register 0xaaf8 : 0x00000000

REG-Idx(0118)[ALE_DRF_BIST_FAIL3] bit_offset = 0:
Register 0xaafc : 0x00000000

REG-Idx(0119)[ALE_DRF_BIST_FAIL4] bit_offset = 0:
Register 0xab00 : 0x00000000

REG-Idx(0120)[ALE_DRF_BIST_FAIL5] bit_offset = 0:
Register 0xab04 : 0x00000000

REG-Idx(0121)[ALE_BIST_LS_MODE] bit_offset = 0:
Register 0xab08 : 0x00000000

REG-Idx(0122)[CHIP_BIST_MODE] bit_offset = 0:
Register 0xe100 : 0x00000000

REG-Idx(0123)[CHIP_DRF_BIST_MODE] bit_offset = 0:
Register 0xe104 : 0x00000000

REG-Idx(0124)[CHIP_BIST_RSTN] bit_offset = 0:
Register 0xe108 : 0x00000000

REG-Idx(0125)[CHIP_DRF_TEST_RESUME] bit_offset = 0:
Register 0xe10c : 0x00000000

REG-Idx(0126)[CHIP_BIST_DONE] bit_offset = 0:
Register 0xe110 : 0x00000000

REG-Idx(0127)[CHIP_DRF_BIST_DONE] bit_offset = 0:
Register 0xe114 : 0x00000000

REG-Idx(0128)[CHIP_BIST_FAIL] bit_offset = 0:
Register 0xe118 : 0x00000000

REG-Idx(0129)[CHIP_DRF_BIST_FAIL] bit_offset = 0:
Register 0xe11c : 0x00000000

REG-Idx(0130)[CHIP_DRF_START_PAUSE] bit_offset = 0:
Register 0xe120 : 0x00000000

REG-Idx(0131)[CHIP_ALL_RESULT] bit_offset = 0:
Register 0xe124 : 0x00000000

REG-Idx(0132)[CHIP_SRAM_LS] bit_offset = 0:
Register 0xe128 : 0x00000000

REG-Idx(0133)[INGR_BIST_CTRL0] bit_offset = 0:
Register 0xdc00 : 0x00f0f000

REG-Idx(0134)[INGR_BIST_CTRL1] bit_offset = 0:
Register 0xdc04 : 0x00000000

REG-Idx(0135)[INGR_BIST_RSLT0] bit_offset = 0:
Register 0xdc08 : 0x00000000

REG-Idx(0136)[INGR_BIST_RSLT1] bit_offset = 0:
Register 0xdc0c : 0x00000000

REG-Idx(0137)[INGR_BIST_RSLT2] bit_offset = 0:
Register 0xdc10 : 0x00000000

REG-Idx(0138)[INGR_BIST_RSLT3] bit_offset = 0:
Register 0xdc14 : 0x00000000

REG-Idx(0139)[INGR_BIST_RSLT4] bit_offset = 0:
Register 0xdc18 : 0x00000000

REG-Idx(0140)[INGR_SRAM_CTRL] bit_offset = 0:
Register 0xdc1c : 0x00000000

REG-Idx(0141)[INGR_BISR_CTRL] bit_offset = 0:
Register 0xdc20 : 0x00000000

REG-Idx(0142)[INGR_BISR_RSLT0] bit_offset = 0:
Register 0xdc24 : 0x00000000

REG-Idx(0143)[INGR_BISR_RSLT1] bit_offset = 0:
Register 0xdc28 : 0x00000000

REG-Idx(0144)[EGR_BIST_CTRL0] bit_offset = 0:
Register 0x7860 : 0x00000000

REG-Idx(0145)[EGR_BIST_CTRL1] bit_offset = 0:
Register 0x7864 : 0x00000000

REG-Idx(0146)[EGR_BIST_RSLT0] bit_offset = 0:
Register 0x7868 : 0x00000000

REG-Idx(0147)[EGR_BIST_RSLT1] bit_offset = 0:
Register 0x786c : 0x00000000

REG-Idx(0148)[EGR_BIST_RSLT2] bit_offset = 0:
Register 0x7870 : 0x00000000

REG-Idx(0149)[EGR_BIST_RSLT3] bit_offset = 0:
Register 0x7874 : 0x00000000

REG-Idx(0150)[EGR_BIST_RSLT4] bit_offset = 0:
Register 0x7878 : 0x00000000

REG-Idx(0151)[EGR_SRAM_CTRL] bit_offset = 0:
Register 0x787c : 0x00000000

REG-Idx(0152)[SOC_BIST_CTRL0] bit_offset = 0:
Register 0xe12c : 0x00000000

REG-Idx(0153)[SOC_BIST_CTRL1] bit_offset = 0:
Register 0xe130 : 0x00000000

REG-Idx(0154)[SOC_BIST_CTRL2] bit_offset = 0:
Register 0xe134 : 0x00000000

REG-Idx(0155)[SOC_BIST_CTRL3] bit_offset = 0:
Register 0xe138 : 0x00000000

REG-Idx(0156)[SOC_BIST_CTRL4] bit_offset = 0:
Register 0xe13c : 0x00000000

REG-Idx(0157)[SOC_BIST_CTRL5] bit_offset = 0:
Register 0xe140 : 0x00000000

REG-Idx(0158)[SOC_BIST_CTRL6] bit_offset = 0:
Register 0xe144 : 0x00000000

REG-Idx(0159)[SOC_BIST_RSTL0] bit_offset = 0:
Register 0xe148 : 0x00000000

REG-Idx(0160)[SOC_BIST_RSTL1] bit_offset = 0:
Register 0xe14c : 0x00000000

REG-Idx(0161)[SOC_BIST_RSTL2] bit_offset = 0:
Register 0xe150 : 0x00000000

REG-Idx(0162)[SOC_BIST_RSTL3] bit_offset = 0:
Register 0xe154 : 0x00000000

REG-Idx(0163)[SOC_BIST_MISC0] bit_offset = 32:
Register 0xe158 : 0x00000000
Register 0xe15c : 0x00000000
Register 0xe160 : 0x00000000
Register 0xe164 : 0x00000000

REG-Idx(0164)[SOC_BIST_MISC1] bit_offset = 32:
Register 0xe168 : 0x00000000
Register 0xe16c : 0x00000000
Register 0xe170 : 0x00000000
Register 0xe174 : 0x00000000

REG-Idx(0165)[DMY_REG0_MAC_BIST] bit_offset = 0:
Register 0x3bbc : 0x00000000

REG-Idx(0166)[DMY_REG0_ALE_BIST] bit_offset = 0:
Register 0xab0c : 0x00000000

REG-Idx(0167)[DMY_REG0_CHIP_BIST] bit_offset = 0:
Register 0xe178 : 0x00000000

REG-Idx(0168)[MAC_IF_CTRL] bit_offset = 0:
Register 0x360 : 0x00000000

REG-Idx(0169)[MAC_SLV_I2C_CTRL] bit_offset = 0:
Register 0x364 : 0x00000000

REG-Idx(0170)[MAC_SLV_TIMEOUT] bit_offset = 0:
Register 0x368 : 0x00000000

REG-Idx(0171)[I2C_MST1_CTRL1] bit_offset = 0:
Register 0x36c : 0x00000000

REG-Idx(0172)[I2C_MST1_CTRL2] bit_offset = 0:
Register 0x370 : 0x00005003

REG-Idx(0173)[I2C_MST1_DATA_WORD0] bit_offset = 0:
Register 0x374 : 0x00000000

REG-Idx(0174)[I2C_MST1_DATA_WORD1] bit_offset = 0:
Register 0x378 : 0x00000000

REG-Idx(0175)[I2C_MST1_DATA_WORD2] bit_offset = 0:
Register 0x37c : 0x00000000

REG-Idx(0176)[I2C_MST1_DATA_WORD3] bit_offset = 0:
Register 0x380 : 0x00000000

REG-Idx(0177)[I2C_MST_GLB_CTRL] bit_offset = 0:
Register 0x384 : 0x00000000

REG-Idx(0178)[I2C_MST2_CTRL1] bit_offset = 0:
Register 0x388 : 0x00000000

REG-Idx(0179)[I2C_MST2_CTRL2] bit_offset = 0:
Register 0x38c : 0x00005003

REG-Idx(0180)[I2C_MST2_DATA_WORD0] bit_offset = 0:
Register 0x390 : 0x00000000

REG-Idx(0181)[I2C_MST2_DATA_WORD1] bit_offset = 0:
Register 0x394 : 0x00000000

REG-Idx(0182)[I2C_MST2_DATA_WORD2] bit_offset = 0:
Register 0x398 : 0x00000000

REG-Idx(0183)[I2C_MST2_DATA_WORD3] bit_offset = 0:
Register 0x39c : 0x00000000

REG-Idx(0184)[SPI_CTRL1] bit_offset = 0:
Register 0x3a0 : 0x0035c000

REG-Idx(0185)[SPI_CTRL2] bit_offset = 0:
Register 0x3a4 : 0x00000000

REG-Idx(0186)[SPI_ADDR] bit_offset = 0:
Register 0x3a8 : 0x00000000

REG-Idx(0187)[SPI_DATA] bit_offset = 32:
Register 0x460 : 0x40244965
Register 0x464 : 0x0e9bf0b9
Register 0x468 : 0xf9f1dc89
Register 0x46c : 0x38a09ce9
Register 0x470 : 0x78ce863c
Register 0x474 : 0x76abbb5f
Register 0x478 : 0x2c9181ba
Register 0x47c : 0xa79b7724
Register 0x480 : 0x4e3d4c86
Register 0x484 : 0x5c8f57e2
Register 0x488 : 0x11d3831e
Register 0x48c : 0x53ab0dd3
Register 0x490 : 0x94854c3f
Register 0x494 : 0xedf68f34
Register 0x498 : 0x3aacc20c
Register 0x49c : 0xeac49c3b
Register 0x4a0 : 0x18c34c05
Register 0x4a4 : 0x9cd5e41f
Register 0x4a8 : 0xccab0fde
Register 0x4ac : 0xb46e56b1
Register 0x4b0 : 0x2bb311ea
Register 0x4b4 : 0xf660f715
Register 0x4b8 : 0xd9095902
Register 0x4bc : 0x6ddb11b8
Register 0x4c0 : 0x72d40cd7
Register 0x4c4 : 0xdae78dae
Register 0x4c8 : 0x9295069f
Register 0x4cc : 0x03578b42
Register 0x4d0 : 0xc89858a7
Register 0x4d4 : 0x79ce2de3
Register 0x4d8 : 0xa97c8a48
Register 0x4dc : 0x1fdeff21
Register 0x4e0 : 0xbefcfd5d
Register 0x4e4 : 0xb7cf323b
Register 0x4e8 : 0x70b7b95d
Register 0x4ec : 0xdcc53470
Register 0x4f0 : 0xc5606d83
Register 0x4f4 : 0xfa0eb5a1
Register 0x4f8 : 0xf131817c
Register 0x4fc : 0x1fadd131
Register 0x500 : 0x1dbf93c0
Register 0x504 : 0xef6e5a92
Register 0x508 : 0xa510c341
Register 0x50c : 0xf33ba2db
Register 0x510 : 0x525996d8
Register 0x514 : 0x68eef7d4
Register 0x518 : 0xe5d14057
Register 0x51c : 0x408f5954
Register 0x520 : 0xc62ea4b0
Register 0x524 : 0x005104ca
Register 0x528 : 0x3acc8c8e
Register 0x52c : 0xcf30b4b6
Register 0x530 : 0x0d0dab81
Register 0x534 : 0x59eea7b9
Register 0x538 : 0x1066c365
Register 0x53c : 0x68f37f53
Register 0x540 : 0xa02859ef
Register 0x544 : 0x255235bc
Register 0x548 : 0x19077020
Register 0x54c : 0xe99a437b
Register 0x550 : 0xa5229e7c
Register 0x554 : 0xee7f12d9
Register 0x558 : 0x251cc302
Register 0x55c : 0xdfdf1982
Register 0x560 : 0x779178cb
Register 0x564 : 0x5b2d8810
Register 0x568 : 0xce9e42a9
Register 0x56c : 0xb7e70c5d
Register 0x570 : 0x66892073
Register 0x574 : 0xa16a8d61
Register 0x578 : 0x69e1c205
Register 0x57c : 0xc7b73566
Register 0x580 : 0xbc850a19
Register 0x584 : 0x0a4fbeae
Register 0x588 : 0x41949d2a
Register 0x58c : 0x57af17b2
Register 0x590 : 0x49e04723
Register 0x594 : 0xe9ae1cfe
Register 0x598 : 0x44caf8e4
Register 0x59c : 0x69ff9843
Register 0x5a0 : 0x3cc2b149
Register 0x5a4 : 0xc0ce311d
Register 0x5a8 : 0x4c16a704
Register 0x5ac : 0xaf6e24cc
Register 0x5b0 : 0x5fef1024
Register 0x5b4 : 0xe77aa033
Register 0x5b8 : 0x96d702c9
Register 0x5bc : 0x52ce2c4c
Register 0x5c0 : 0x7a9cac4f
Register 0x5c4 : 0xad4f6d56
Register 0x5c8 : 0x90488059
Register 0x5cc : 0x0ec2d77c
Register 0x5d0 : 0xc296162a
Register 0x5d4 : 0x677e10b3
Register 0x5d8 : 0x89af451c
Register 0x5dc : 0xf6f226e0
Register 0x5e0 : 0xe08f1788
Register 0x5e4 : 0xf9a1ce39
Register 0x5e8 : 0x505c90c8
Register 0x5ec : 0xf5e5aa46
Register 0x5f0 : 0x13e20ce3
Register 0x5f4 : 0x1a6678fc
Register 0x5f8 : 0xc4205444
Register 0x5fc : 0x0ef9c3f9
Register 0x600 : 0x68598e0c
Register 0x604 : 0xa25ff136
Register 0x608 : 0x87cac420
Register 0x60c : 0x5ed2559e
Register 0x610 : 0x6c8196f8
Register 0x614 : 0xe3ebb81c
Register 0x618 : 0x31a5a536
Register 0x61c : 0xc7c53fdd
Register 0x620 : 0x5f106895
Register 0x624 : 0xba4d1d7f
Register 0x628 : 0x0334b65f
Register 0x62c : 0x44809897
Register 0x630 : 0xa6075090
Register 0x634 : 0x83708122
Register 0x638 : 0xf63ce249
Register 0x63c : 0xa51b3d76
Register 0x640 : 0xdd242514
Register 0x644 : 0x75b21f89
Register 0x648 : 0x8350b270
Register 0x64c : 0xbfb88f3b
Register 0x650 : 0x3e3d38b2
Register 0x654 : 0x6c61709a
Register 0x658 : 0xe3be2f08
Register 0x65c : 0xaf4bd596

REG-Idx(0188)[P0_INTF_CTRL] bit_offset = 6: port = (0~27), array = (0~0)
Register 0x24 : 0x00000000
Register 0x28 : 0x00000000
Register 0x2c : 0x00000000
Register 0x30 : 0x00000000
Register 0x34 : 0x00000000
Register 0x38 : 0x00000000

REG-Idx(0189)[GPIO_SEL_CTRL] bit_offset = 0:
Register 0x200 : 0x000003ff

REG-Idx(0190)[JTAG_SEL_CTRL] bit_offset = 0:
Register 0x204 : 0x07fffffc

REG-Idx(0191)[DMY_REG0_REG_IF] bit_offset = 0:
Register 0x3ac : 0x00000000

REG-Idx(0192)[LED_GLB_CTRL] bit_offset = 0:
Register 0xcc00 : 0x01052659

REG-Idx(0193)[LED_PORT_NUM_CTRL] bit_offset = 2: port = (0~27), array = (0~0)
Register 0xcc04 : 0xaaabaaaa
Register 0xcc08 : 0x00afabab

REG-Idx(0194)[LED_SET3_1_CTRL] bit_offset = 0:
Register 0xcc0c : 0x00000000

REG-Idx(0195)[LED_SET3_0_CTRL] bit_offset = 0:
Register 0xcc10 : 0x00000000

REG-Idx(0196)[LED_SET2_1_CTRL] bit_offset = 0:
Register 0xcc14 : 0x00000000

REG-Idx(0197)[LED_SET2_0_CTRL] bit_offset = 0:
Register 0xcc18 : 0x00000000

REG-Idx(0198)[LED_SET1_1_CTRL] bit_offset = 0:
Register 0xcc1c : 0x00000000

REG-Idx(0199)[LED_SET1_0_CTRL] bit_offset = 0:
Register 0xcc20 : 0x00000000

REG-Idx(0200)[LED_SET0_1_CTRL] bit_offset = 0:
Register 0xcc24 : 0x00000a01

REG-Idx(0201)[LED_SET0_0_CTRL] bit_offset = 0:
Register 0xcc28 : 0x0a200b80

REG-Idx(0202)[LED_PORT_COPR_SET_SEL_CTRL] bit_offset = 2: port = (0~27), array = (0~0)
Register 0xcc2c : 0x00000000
Register 0xcc30 : 0x00000000

REG-Idx(0203)[LED_PORT_FIB_SET_SEL_CTRL] bit_offset = 2: port = (0~27), array = (0~0)
Register 0xcc34 : 0x00000000
Register 0xcc38 : 0x00000000

REG-Idx(0204)[LED_PORT_COPR_MASK_CTRL] bit_offset = 1: port = (0~27), array = (0~0)
Register 0xcc3c : 0x03110100

REG-Idx(0205)[LED_PORT_FIB_MASK_CTRL] bit_offset = 1: port = (0~27), array = (0~0)
Register 0xcc40 : 0x03110100

REG-Idx(0206)[LED_PORT_COMBO_MASK_CTRL] bit_offset = 1: port = (0~27), array = (0~0)
Register 0xcc44 : 0x03110100

REG-Idx(0207)[SW_LED_LOAD] bit_offset = 0:
Register 0xcc48 : 0x00000000

REG-Idx(0208)[LED_PORT_SW_EN_CTRL] bit_offset = 4: port = (0~27), array = (0~0)
Register 0xcc4c : 0x00000000
Register 0xcc50 : 0x00000000
Register 0xcc54 : 0x00000000
Register 0xcc58 : 0x00000000

REG-Idx(0209)[LED_PORT_SW_CTRL] bit_offset = 32:
Register 0xcc5c : 0x00000000
Register 0xcc60 : 0x00000000
Register 0xcc64 : 0x00000000
Register 0xcc68 : 0x00000000
Register 0xcc6c : 0x00000000
Register 0xcc70 : 0x00000000
Register 0xcc74 : 0x00000000
Register 0xcc78 : 0x00000000
Register 0xcc7c : 0x00000000
Register 0xcc80 : 0x00000000
Register 0xcc84 : 0x00000000
Register 0xcc88 : 0x00000000
Register 0xcc8c : 0x00000000
Register 0xcc90 : 0x00000000
Register 0xcc94 : 0x00000000
Register 0xcc98 : 0x00000000
Register 0xcc9c : 0x00000000
Register 0xcca0 : 0x00000000
Register 0xcca4 : 0x00000000
Register 0xcca8 : 0x00000000
Register 0xccac : 0x00000000
Register 0xccb0 : 0x00000000
Register 0xccb4 : 0x00000000
Register 0xccb8 : 0x00000000
Register 0xccbc : 0x00000000
Register 0xccc0 : 0x00000000
Register 0xccc4 : 0x00000000
Register 0xccc8 : 0x00000000

REG-Idx(0210)[LED_INDRT_ACCESS_CTRL] bit_offset = 0:
Register 0xcccc : 0x00000000

REG-Idx(0211)[LED_LOAD_LV1_10G] bit_offset = 0:
Register 0xccd0 : 0x000fa000

REG-Idx(0212)[LED_LOAD_LV2_10G] bit_offset = 0:
Register 0xccd4 : 0x00271000

REG-Idx(0213)[LED_LOAD_LV3_10G] bit_offset = 0:
Register 0xccd8 : 0x004e2000

REG-Idx(0214)[LED_LOAD_LV1_5G] bit_offset = 0:
Register 0xccdc : 0x0007d000

REG-Idx(0215)[LED_LOAD_LV2_5G] bit_offset = 0:
Register 0xcce0 : 0x00138800

REG-Idx(0216)[LED_LOAD_LV3_5G] bit_offset = 0:
Register 0xcce4 : 0x00271000

REG-Idx(0217)[LED_LOAD_LV1_2P5G] bit_offset = 0:
Register 0xcce8 : 0x0003e800

REG-Idx(0218)[LED_LOAD_LV2_2P5G] bit_offset = 0:
Register 0xccec : 0x0009c400

REG-Idx(0219)[LED_LOAD_LV3_2P5G] bit_offset = 0:
Register 0xccf0 : 0x00138800

REG-Idx(0220)[LED_LOAD_LV1_1G] bit_offset = 0:
Register 0xccf4 : 0x00019000

REG-Idx(0221)[LED_LOAD_LV2_1G] bit_offset = 0:
Register 0xccf8 : 0x0003e800

REG-Idx(0222)[LED_LOAD_LV3_1G] bit_offset = 0:
Register 0xccfc : 0x0007d000

REG-Idx(0223)[LED_LOAD_LV1_500M] bit_offset = 0:
Register 0xcd00 : 0x0000c800

REG-Idx(0224)[LED_LOAD_LV2_500M] bit_offset = 0:
Register 0xcd04 : 0x0001f400

REG-Idx(0225)[LED_LOAD_LV3_500M] bit_offset = 0:
Register 0xcd08 : 0x0003e800

REG-Idx(0226)[LED_LOAD_LV1_100M] bit_offset = 0:
Register 0xcd0c : 0x00002800

REG-Idx(0227)[LED_LOAD_LV2_100M] bit_offset = 0:
Register 0xcd10 : 0x00006400

REG-Idx(0228)[LED_LOAD_LV3_100M] bit_offset = 0:
Register 0xcd14 : 0x0000c800

REG-Idx(0229)[LED_LOAD_LV1_10M] bit_offset = 0:
Register 0xcd18 : 0x00000400

REG-Idx(0230)[LED_LOAD_LV2_10M] bit_offset = 0:
Register 0xcd1c : 0x00000a00

REG-Idx(0231)[LED_LOAD_LV3_10M] bit_offset = 0:
Register 0xcd20 : 0x00001400

REG-Idx(0232)[LED_P_LOAD_CTRL] bit_offset = 0:
Register 0xcd24 : 0x00000000

REG-Idx(0233)[EXT_GPIO_GLB_CTRL] bit_offset = 0:
Register 0xc600 : 0x0000000c

REG-Idx(0234)[EXT_GPIO_TRIG] bit_offset = 0:
Register 0xc604 : 0x00000000

REG-Idx(0235)[EXT_GPIO_DIR_CTRL_1] bit_offset = 0:
Register 0xc608 : 0x00000000

REG-Idx(0236)[EXT_GPIO_DIR_CTRL_2] bit_offset = 0:
Register 0xc60c : 0x00000000

REG-Idx(0237)[EXT_GPIO_DIR_CTRL_3] bit_offset = 0:
Register 0xc610 : 0x00000000

REG-Idx(0238)[EXT_GPIO_DATA_CTRL_1] bit_offset = 0:
Register 0xc614 : 0x00000000

REG-Idx(0239)[EXT_GPIO_DATA_CTRL_2] bit_offset = 0:
Register 0xc618 : 0x00000000

REG-Idx(0240)[EXT_GPIO_DATA_CTRL_3] bit_offset = 0:
Register 0xc61c : 0x00000000

REG-Idx(0241)[EXT_GPIO_INDRT_ACCESS_CTRL] bit_offset = 0:
Register 0xc620 : 0x00000000

REG-Idx(0242)[DMY_REG0_GLB_CTRL] bit_offset = 0:
Register 0xc624 : 0x00000000

REG-Idx(0243)[DMY_REG0_LED] bit_offset = 0:
Register 0xcd28 : 0x00000000

REG-Idx(0244)[IMR_GLB] bit_offset = 0:
Register 0xc628 : 0x00000000

REG-Idx(0245)[IMR_PORT_LINK_STS_CHG] bit_offset = 0:
Register 0xc62c : 0x00000000

REG-Idx(0246)[IMR_RSVD] bit_offset = 0:
Register 0xc630 : 0x00000000

REG-Idx(0247)[IMR_SERDES_LINK_FAULT_P] bit_offset = 0:
Register 0xc634 : 0x00000000

REG-Idx(0248)[IMR_SERDES_RX_SYM_ERR] bit_offset = 0:
Register 0xc638 : 0x00000000

REG-Idx(0249)[IMR_OAM_DYGASP] bit_offset = 0:
Register 0xc63c : 0x00000000

REG-Idx(0250)[IMR_EXT_GPIO0] bit_offset = 0:
Register 0xc640 : 0x00000000

REG-Idx(0251)[IMR_EXT_GPIO1] bit_offset = 0:
Register 0xc644 : 0x00000000

REG-Idx(0252)[IMR_TM_RLFD] bit_offset = 0:
Register 0xc648 : 0x00000000

REG-Idx(0253)[IMR_AUTO_REC] bit_offset = 0:
Register 0xc64c : 0x00000000

REG-Idx(0254)[IMR_SDS_UPD_PHYSTS0] bit_offset = 0:
Register 0xc650 : 0x00000000

REG-Idx(0255)[IMR_ROUT_LPBUF] bit_offset = 0:
Register 0xc654 : 0x00000000

REG-Idx(0256)[ISR_GLB] bit_offset = 0:
Register 0xc658 : 0x00000000

REG-Idx(0257)[ISR_SW_INT_MODE] bit_offset = 0:
Register 0xc65c : 0x00000000

REG-Idx(0258)[ISR_PORT_LINK_STS_CHG] bit_offset = 0:
Register 0xc660 : 0x10000100

REG-Idx(0259)[ISR_RSVD] bit_offset = 0:
Register 0xc664 : 0x00000000

REG-Idx(0260)[ISR_SERDES_LINK_FAULT_P] bit_offset = 0:
Register 0xc668 : 0x0fffffff

REG-Idx(0261)[ISR_SERDES_RX_SYM_ERR] bit_offset = 0:
Register 0xc66c : 0x00000000

REG-Idx(0262)[ISR_OAM_DYGASP] bit_offset = 0:
Register 0xc670 : 0x00000000

REG-Idx(0263)[ISR_EXT_GPIO0] bit_offset = 0:
Register 0xc674 : 0x00000000

REG-Idx(0264)[ISR_EXT_GPIO1] bit_offset = 0:
Register 0xc678 : 0x00000000

REG-Idx(0265)[ISR_EXT_GPIO_MODE0] bit_offset = 0:
Register 0xc67c : 0x00000000

REG-Idx(0266)[ISR_EXT_GPIO_MODE1] bit_offset = 0:
Register 0xc680 : 0x00000000

REG-Idx(0267)[ISR_EXT_GPIO_MODE2] bit_offset = 0:
Register 0xc684 : 0x00000000

REG-Idx(0268)[ISR_TM_RLFD] bit_offset = 0:
Register 0xc688 : 0x00000000

REG-Idx(0269)[ISR_AUTO_REC] bit_offset = 0:
Register 0xc68c : 0x00000000

REG-Idx(0270)[ISR_SDS_UPD_PHYSTS] bit_offset = 0:
Register 0xc690 : 0x00000000

REG-Idx(0271)[ISR_ROUT_LPBUF] bit_offset = 0:
Register 0xc694 : 0x00000000

REG-Idx(0272)[EFUSE_ACCESS_EN] bit_offset = 0:
Register 0xc698 : 0x00000000

REG-Idx(0273)[EFUSE_ACCESS_CTRL] bit_offset = 0:
Register 0xc69c : 0x00000800

REG-Idx(0274)[EFUSE_WDATA_CTRL] bit_offset = 0:
Register 0xc6a0 : 0x00000000

REG-Idx(0275)[EFUSE_RDATA_CTRL] bit_offset = 0:
Register 0xc6a4 : 0x00000000

REG-Idx(0276)[CALIB_CTRL_1] bit_offset = 0:
Register 0xc6a8 : 0x00000000

REG-Idx(0277)[CALIB_CTRL_2] bit_offset = 0:
Register 0xc6ac : 0x033c03f1

REG-Idx(0278)[CALIB_CTRL_3] bit_offset = 0:
Register 0xc6b0 : 0x81308128

REG-Idx(0279)[CALIB_CTRL_4] bit_offset = 0:
Register 0xc6b4 : 0x00000188

REG-Idx(0280)[SPD_SENSOR0_CTRL] bit_offset = 0:
Register 0x3c : 0x00000000

REG-Idx(0281)[SPD_SENSOR1_CTRL] bit_offset = 0:
Register 0x40 : 0x00000000

REG-Idx(0282)[SPD_SENSOR2_CTRL] bit_offset = 0:
Register 0x44 : 0x00000000

REG-Idx(0283)[SPD_SENSOR3_CTRL] bit_offset = 0:
Register 0x48 : 0x00000000

REG-Idx(0284)[SPD_SENSOR0_RESULT] bit_offset = 0:
Register 0x4c : 0x00000000

REG-Idx(0285)[SPD_SENSOR1_RESULT] bit_offset = 0:
Register 0x50 : 0x00000000

REG-Idx(0286)[SPD_SENSOR2_RESULT] bit_offset = 0:
Register 0x54 : 0x00000000

REG-Idx(0287)[SPD_SENSOR3_RESULT] bit_offset = 0:
Register 0x58 : 0x00000000

REG-Idx(0288)[SPD_DEBUG] bit_offset = 0:
Register 0x5c : 0x00000000

REG-Idx(0289)[THERMAL_METER_CTRL_0] bit_offset = 0:
Register 0x60 : 0x00000005

REG-Idx(0290)[THERMAL_METER_CTRL_1] bit_offset = 0:
Register 0x64 : 0x00000007

REG-Idx(0291)[THERMAL_METER_CTRL_2] bit_offset = 0:
Register 0x68 : 0x00024cd7

REG-Idx(0292)[THERMAL_METER_RESULT_0] bit_offset = 0:
Register 0x6c : 0x00220022

REG-Idx(0293)[THERMAL_METER_RESULT_1] bit_offset = 0:
Register 0x70 : 0x0000007f

REG-Idx(0294)[IO_DRIVING_ABILITY_CTRL0] bit_offset = 0:
Register 0x208 : 0x00000000

REG-Idx(0295)[IO_DRIVING_ABILITY_CTRL1] bit_offset = 0:
Register 0x20c : 0x000fffff

REG-Idx(0296)[IO_DRIVING_ABILITY_CTRL2] bit_offset = 0:
Register 0x180 : 0x00009249

REG-Idx(0297)[IO_DRIVING_ABILITY_CTRL3] bit_offset = 0:
Register 0x210 : 0x00055555

REG-Idx(0298)[IO_DRIVING_ABILITY_CTRL4] bit_offset = 0:
Register 0x214 : 0x00055555

REG-Idx(0299)[IO_DRIVING_ABILITY_CTRL5] bit_offset = 0:
Register 0x218 : 0x00005555

REG-Idx(0300)[IO_DRIVING_ABILITY_CTRL6] bit_offset = 0:
Register 0x21c : 0x00000000

REG-Idx(0301)[IO_DRIVING_ABILITY_CTRL7] bit_offset = 0:
Register 0x220 : 0x00000000

REG-Idx(0302)[IO_DRIVING_ABILITY_CTRL8] bit_offset = 0:
Register 0x224 : 0x00003041

REG-Idx(0303)[FT_SCAN_MODE] bit_offset = 0:
Register 0x74 : 0x00000000

REG-Idx(0304)[SOC_DEBUG] bit_offset = 0:
Register 0x100 : 0x00000008

REG-Idx(0305)[BOND_DBG] bit_offset = 0:
Register 0x228 : 0x00ffffff

REG-Idx(0306)[STRP_DBG] bit_offset = 0:
Register 0x22c : 0x00000c10

REG-Idx(0307)[DBG_MODE] bit_offset = 0:
Register 0xc6b8 : 0x00000000

REG-Idx(0308)[DBG_SEL0] bit_offset = 0:
Register 0xc6bc : 0x00000000

REG-Idx(0309)[DBG_SEL1] bit_offset = 0:
Register 0xc6c0 : 0x00000000

REG-Idx(0310)[DBG_SEL2] bit_offset = 0:
Register 0xc6c4 : 0x00000000

REG-Idx(0311)[DBG_SEL3] bit_offset = 0:
Register 0xc6c8 : 0x00000000

REG-Idx(0312)[DBG_SIG_SEL0] bit_offset = 0:
Register 0xc6cc : 0x00000000

REG-Idx(0313)[DBG_SIG_SEL1] bit_offset = 0:
Register 0xc6d0 : 0x00000000

REG-Idx(0314)[DBG_SIG_SEL2] bit_offset = 0:
Register 0xc6d4 : 0x00000000

REG-Idx(0315)[DBG_SIG_SEL3] bit_offset = 0:
Register 0xc6d8 : 0x00000000

REG-Idx(0316)[DBG_VAL] bit_offset = 0:
Register 0xc6dc : 0x00000000

REG-Idx(0317)[DMY_REG0_CHIP_MISC] bit_offset = 0:
Register 0x78 : 0x0000001c

REG-Idx(0318)[DMY_REG0_CHIP_MISC_R] bit_offset = 0:
Register 0x230 : 0x0fffffff

REG-Idx(0319)[DMA_IF_RX_BASE_DESC_ADDR_CTRL] bit_offset = 32:
Register 0xdf00 : 0xaeeabbe0
Register 0xdf04 : 0xaeeabb60
Register 0xdf08 : 0xaeeabae0
Register 0xdf0c : 0xaeeaba60
Register 0xdf10 : 0xaeeab9e0
Register 0xdf14 : 0xaeeab960
Register 0xdf18 : 0xaeeab8e0
Register 0xdf1c : 0xaeeab860
Register 0xdf20 : 0xaeeab7e0
Register 0xdf24 : 0xaeeab760
Register 0xdf28 : 0xaeeab6e0
Register 0xdf2c : 0xaeeab660
Register 0xdf30 : 0xaeeab5e0
Register 0xdf34 : 0xaeeab560
Register 0xdf38 : 0xaeeab4e0
Register 0xdf3c : 0xaeeab460
Register 0xdf40 : 0xaeeab3e0
Register 0xdf44 : 0xaeeab360
Register 0xdf48 : 0xaeeab2e0
Register 0xdf4c : 0xaeeab260
Register 0xdf50 : 0xaeeab1e0
Register 0xdf54 : 0xaeeab160
Register 0xdf58 : 0xaeeab0e0
Register 0xdf5c : 0xaeeab060
Register 0xdf60 : 0xae03ff60
Register 0xdf64 : 0xae03fee0
Register 0xdf68 : 0xae03fe60
Register 0xdf6c : 0xae03fde0
Register 0xdf70 : 0xae03fd60
Register 0xdf74 : 0xae03fce0
Register 0xdf78 : 0xae03fc60
Register 0xdf7c : 0xae03fbe0

REG-Idx(0320)[DMA_IF_RX_CUR_DESC_ADDR_CTRL] bit_offset = 32:
Register 0xdf80 : 0xaeeabbe0
Register 0xdf84 : 0xaeeabb60
Register 0xdf88 : 0xaeeabae0
Register 0xdf8c : 0xaeeaba60
Register 0xdf90 : 0xaeeab9e0
Register 0xdf94 : 0xaeeab960
Register 0xdf98 : 0xaeeab8e0
Register 0xdf9c : 0xaeeab860
Register 0xdfa0 : 0xaeeab7e0
Register 0xdfa4 : 0xaeeab760
Register 0xdfa8 : 0xaeeab6e0
Register 0xdfac : 0xaeeab660
Register 0xdfb0 : 0xaeeab5e0
Register 0xdfb4 : 0xaeeab560
Register 0xdfb8 : 0xaeeab4e0
Register 0xdfbc : 0xaeeab460
Register 0xdfc0 : 0xaeeab3e0
Register 0xdfc4 : 0xaeeab360
Register 0xdfc8 : 0xaeeab2e0
Register 0xdfcc : 0xaeeab260
Register 0xdfd0 : 0xaeeab1e0
Register 0xdfd4 : 0xaeeab160
Register 0xdfd8 : 0xaeeab0e0
Register 0xdfdc : 0xaeeab060
Register 0xdfe0 : 0xae03ff60
Register 0xdfe4 : 0xae03fee0
Register 0xdfe8 : 0xae03fe60
Register 0xdfec : 0xae03fde0
Register 0xdff0 : 0xae03fd60
Register 0xdff4 : 0xae03fce0
Register 0xdff8 : 0xae03fc60
Register 0xdffc : 0xae03fbe0

REG-Idx(0321)[DMA_IF_TX_BASE_DESC_ADDR_CTRL] bit_offset = 32:
Register 0xe000 : 0xaedb11e0
Register 0xe004 : 0xaedb1120

REG-Idx(0322)[DMA_IF_TX_CUR_DESC_ADDR_CTRL] bit_offset = 32:
Register 0xe008 : 0xaedb1238
Register 0xe00c : 0xaedb1120

REG-Idx(0323)[DMA_IF_INTR_RX_RUNOUT_MSK] bit_offset = 0:
Register 0xe010 : 0xffffffff

REG-Idx(0324)[DMA_IF_INTR_RX_DONE_MSK] bit_offset = 0:
Register 0xe014 : 0xffffffff

REG-Idx(0325)[DMA_IF_INTR_TX_DONE_MSK] bit_offset = 0:
Register 0xe018 : 0x0000000f

REG-Idx(0326)[DMA_IF_INTR_RX_RUNOUT_STS] bit_offset = 0:
Register 0xe01c : 0x00000000

REG-Idx(0327)[DMA_IF_INTR_RX_DONE_STS] bit_offset = 0:
Register 0xe020 : 0x00000000

REG-Idx(0328)[DMA_IF_INTR_TX_DONE_STS] bit_offset = 0:
Register 0xe024 : 0x00000000

REG-Idx(0329)[DMA_IF_CTRL] bit_offset = 0:
Register 0xe028 : 0x06400030

REG-Idx(0330)[DMA_IF_PKT_CTRL] bit_offset = 0:
Register 0xce00 : 0x00000018

REG-Idx(0331)[DMA_IF_RX_RING_SIZE] bit_offset = 10: port = (0~0), array = (0~31)
Register 0x7c60 : 0x00802008
Register 0x7c64 : 0x00802008
Register 0x7c68 : 0x00802008
Register 0x7c6c : 0x00802008
Register 0x7c70 : 0x00802008
Register 0x7c74 : 0x00802008
Register 0x7c78 : 0x00802008
Register 0x7c7c : 0x00802008
Register 0x7c80 : 0x00802008
Register 0x7c84 : 0x00802008
Register 0x7c88 : 0x00002008

REG-Idx(0332)[DMA_IF_RX_RING_CNTR] bit_offset = 10: port = (0~0), array = (0~31)
Register 0x7c8c : 0x00000000
Register 0x7c90 : 0x00000000
Register 0x7c94 : 0x00000000
Register 0x7c98 : 0x00000000
Register 0x7c9c : 0x00000000
Register 0x7ca0 : 0x00000000
Register 0x7ca4 : 0x00000000
Register 0x7ca8 : 0x00000000
Register 0x7cac : 0x00000000
Register 0x7cb0 : 0x00000000
Register 0x7cb4 : 0x00000000

REG-Idx(0333)[DMA_IF_PHYSICAL_ADDR_MSK] bit_offset = 0:
Register 0xe02c : 0x1fffffff

REG-Idx(0334)[NIC_DBG_SEL_0] bit_offset = 0:
Register 0xe030 : 0x00000000

REG-Idx(0335)[NIC_DBG_SEL_1] bit_offset = 0:
Register 0xe034 : 0x00000000

REG-Idx(0336)[NIC_BIST_CTRL_0] bit_offset = 0:
Register 0xe038 : 0x00000000

REG-Idx(0337)[NIC_BIST_CTRL_1] bit_offset = 0:
Register 0xe03c : 0x00000000

REG-Idx(0338)[DMY_REG0_NIC] bit_offset = 0:
Register 0xe040 : 0x00000000

REG-Idx(0339)[SPCL_SWITCH_IPV4_ADDR_CTRL] bit_offset = 0:
Register 0xa220 : 0xc0a80101

REG-Idx(0340)[SPCL_SWITCH_IPV6_ADDR_CTRL] bit_offset = 128:
Register 0xa224 : 0x00000000
Register 0xa228 : 0x00000000
Register 0xa22c : 0x00000000
Register 0xa230 : 0x00000000

REG-Idx(0341)[SPCL_TRAP_CAPWAP_PORT_CTRL] bit_offset = 0:
Register 0xa234 : 0x0000147e

REG-Idx(0342)[SPCL_TRAP_CTRL] bit_offset = 0:
Register 0xa238 : 0x00000001

REG-Idx(0343)[SPCL_TRAP_PORT_CTRL] bit_offset = 2: port = (0~28), array = (0~0)
Register 0xa1a0 : 0x00000000
Register 0xa1a4 : 0x00000000

REG-Idx(0344)[TBL_ACCESS_L2_CTRL] bit_offset = 0:
Register 0xb320 : 0x00000000

REG-Idx(0345)[TBL_ACCESS_L2_METHOD_CTRL0] bit_offset = 0:
Register 0xb324 : 0x00000000

REG-Idx(0346)[TBL_ACCESS_L2_METHOD_CTRL1] bit_offset = 64:
Register 0xb328 : 0x00000000
Register 0xb32c : 0x00000000

REG-Idx(0347)[TBL_ACCESS_L2_METHOD_CTRL2] bit_offset = 0:
Register 0xb330 : 0x00000000

REG-Idx(0348)[TBL_ACCESS_L2_DATA] bit_offset = 32:
Register 0xb334 : 0x00000000
Register 0xb338 : 0x00000000
Register 0xb33c : 0x00000000

REG-Idx(0349)[TBL_ACCESS_CTRL_0] bit_offset = 0:
Register 0xb340 : 0x00014000

REG-Idx(0350)[TBL_ACCESS_DATA_0] bit_offset = 32:
Register 0xb344 : 0xfd7f7f7f
Register 0xb348 : 0xffffffc0
Register 0xb34c : 0x00000000
Register 0xb350 : 0x00000000
Register 0xb354 : 0x00000000
Register 0xb358 : 0x00000000
Register 0xb35c : 0x00000000
Register 0xb360 : 0x00000000
Register 0xb364 : 0x00000000
Register 0xb368 : 0x00000000
Register 0xb36c : 0x00000000
Register 0xb370 : 0x00000000
Register 0xb374 : 0x00000000
Register 0xb378 : 0x00000000
Register 0xb37c : 0x00000000
Register 0xb380 : 0x00000000
Register 0xb384 : 0x00000000
Register 0xb388 : 0x00000000
Register 0xb38c : 0x00000000

REG-Idx(0351)[TBL_ACCESS_CTRL_1] bit_offset = 0:
Register 0xb3a0 : 0x000167ff

REG-Idx(0352)[TBL_ACCESS_DATA_1] bit_offset = 32:
Register 0xb3a4 : 0x003ffe80
Register 0xb3a8 : 0x00000000
Register 0xb3ac : 0x00000000
Register 0xb3b0 : 0x00000000
Register 0xb3b4 : 0x00000000
Register 0xb3b8 : 0x00000000
Register 0xb3bc : 0x00000000
Register 0xb3c0 : 0x00000000
Register 0xb3c4 : 0x00000000
Register 0xb3c8 : 0x00000000
Register 0xb3cc : 0x00000000
Register 0xb3d0 : 0x00000000
Register 0xb3d4 : 0x00000000
Register 0xb3d8 : 0x00000000
Register 0xb3dc : 0x00000000
Register 0xb3e0 : 0x00000000
Register 0xb3e4 : 0x00000000
Register 0xb3e8 : 0x00000000
Register 0xb3ec : 0x00000000
Register 0xb3f0 : 0x00000000

REG-Idx(0353)[TBL_ACCESS_CTRL_2] bit_offset = 0:
Register 0xce04 : 0x00004ffe

REG-Idx(0354)[TBL_ACCESS_DATA_2] bit_offset = 32:
Register 0xce08 : 0x00000000
Register 0xce0c : 0x00000000
Register 0xce10 : 0x00000000
Register 0xce14 : 0x00000000
Register 0xce18 : 0x00000000
Register 0xce1c : 0x00000000

REG-Idx(0355)[TBL_ACCESS_HSB_CTRL] bit_offset = 0:
Register 0xd600 : 0x0000003f

REG-Idx(0356)[TBL_ACCESS_HSB_DATA] bit_offset = 32:
Register 0xd604 : 0x00000000
Register 0xd608 : 0x00000000
Register 0xd60c : 0x00000000
Register 0xd610 : 0x00000000
Register 0xd614 : 0x00000000
Register 0xd618 : 0x00000000
Register 0xd61c : 0x00000000
Register 0xd620 : 0x00000000
Register 0xd624 : 0x00000000
Register 0xd628 : 0x00000000
Register 0xd62c : 0x00000000
Register 0xd630 : 0x00000000
Register 0xd634 : 0x00000000
Register 0xd638 : 0x00000000
Register 0xd63c : 0x00000000
Register 0xd640 : 0x00000000
Register 0xd644 : 0x00000000
Register 0xd648 : 0x00000000
Register 0xd64c : 0x00000000
Register 0xd650 : 0x00000000
Register 0xd654 : 0x00000000
Register 0xd658 : 0x00000000
Register 0xd65c : 0x00000000
Register 0xd660 : 0x00000000
Register 0xd664 : 0x00000000
Register 0xd668 : 0x00000000
Register 0xd66c : 0x00000000
Register 0xd670 : 0x00000000
Register 0xd674 : 0x00000000
Register 0xd678 : 0x00000000

REG-Idx(0357)[TBL_ACCESS_HSA_CTRL] bit_offset = 0:
Register 0x7880 : 0x00000000

REG-Idx(0358)[TBL_ACCESS_HSA_DATA] bit_offset = 32:
Register 0x7884 : 0x00000000
Register 0x7888 : 0x00000000
Register 0x788c : 0x00000000
Register 0x7890 : 0x00000000
Register 0x7894 : 0x00000000
Register 0x7898 : 0x00000000
Register 0x789c : 0x00000000
Register 0x78a0 : 0x00000000
Register 0x78a4 : 0x00000000
Register 0x78a8 : 0x00000000
Register 0x78ac : 0x00000000
Register 0x78b0 : 0x00000000
Register 0x78b4 : 0x00000000
Register 0x78b8 : 0x00000000
Register 0x78bc : 0x00000000
Register 0x78c0 : 0x00000000
Register 0x78c4 : 0x00000000
Register 0x78c8 : 0x00000000
Register 0x78cc : 0x00000000
Register 0x78d0 : 0x00000000
Register 0x78d4 : 0x00000000
Register 0x78d8 : 0x00000000

REG-Idx(0359)[DMY_REG0_ALE_TAB] bit_offset = 0:
Register 0xb390 : 0x00000000

REG-Idx(0360)[DMY_REG0_RT_TAB] bit_offset = 0:
Register 0xb3f4 : 0x00000000

REG-Idx(0361)[DMY_REG0_PKT_ENCAP] bit_offset = 0:
Register 0xce20 : 0x00000000

REG-Idx(0362)[MAC_GLB_CTRL] bit_offset = 0:
Register 0xc6e0 : 0x00002112

REG-Idx(0363)[MAC_PORT_CTRL] bit_offset = 32:
Register 0x3260 : 0x00000003
Register 0x3360 : 0x00000000
Register 0x3460 : 0x00000003
Register 0x3560 : 0x00000000
Register 0x3660 : 0x00000003
Register 0x3760 : 0x00000003
Register 0x3860 : 0x00000003
Register 0x3960 : 0x00000003
Register 0x3a60 : 0x00000000
Register 0x3b60 : 0x00000000
Register 0x3c60 : 0x000fffff
Register 0x3d60 : 0x00000001
Register 0x3e60 : 0x000fffff
Register 0x3f60 : 0x000fffff
Register 0x4060 : 0x00000001
Register 0x4160 : 0x000fffff
Register 0x4260 : 0x000fffff
Register 0x4360 : 0x00000001
Register 0x4460 : 0x000fffff
Register 0x4560 : 0x000fffff
Register 0x4660 : 0x00000001
Register 0x4760 : 0x000fffff
Register 0x4860 : 0x000fffff
Register 0x4960 : 0x00000081
Register 0x4a60 : 0x000fffff
Register 0x4b60 : 0x000fffff
Register 0x4c60 : 0x00000001
Register 0x4d60 : 0x000fffff
Register 0x4e60 : 0x000fffff

REG-Idx(0364)[HALF_CHG_CTRL] bit_offset = 32:
Register 0x3264 : 0x00000400
Register 0x3364 : 0x00000000
Register 0x3464 : 0x00000400
Register 0x3564 : 0x00000000
Register 0x3664 : 0x00000400
Register 0x3764 : 0x00000400
Register 0x3864 : 0x00000400
Register 0x3964 : 0x00000400
Register 0x3a64 : 0x00000000
Register 0x3b64 : 0x00000000
Register 0x3c64 : 0x00008000
Register 0x3d64 : 0x00000001
Register 0x3e64 : 0x000fffff
Register 0x3f64 : 0x00008000
Register 0x4064 : 0x00000001
Register 0x4164 : 0x000fffff
Register 0x4264 : 0x00008000
Register 0x4364 : 0x00000001
Register 0x4464 : 0x000fffff
Register 0x4564 : 0x00008000
Register 0x4664 : 0x00000001
Register 0x4764 : 0x000fffff
Register 0x4864 : 0x00004000
Register 0x4964 : 0x00000081
Register 0x4a64 : 0x000fffff
Register 0x4b64 : 0x00008000
Register 0x4c64 : 0x00000001
Register 0x4d64 : 0x000fffff
Register 0x4e64 : 0x00008000

REG-Idx(0365)[MAC_EEPROM_DOWN_LOAD_CNTRL] bit_offset = 0:
Register 0xc6e4 : 0x00000000

REG-Idx(0366)[MAC_EEPROM_DOWN_LOAD_STS] bit_offset = 0:
Register 0xc6e8 : 0x00000006

REG-Idx(0367)[MAC_EEPROM_DOWN_LOAD_MAC_POS] bit_offset = 0:
Register 0xc6ec : 0x00120000

REG-Idx(0368)[MAC_EEPROM_DOWN_LOAD_SERDES_POS] bit_offset = 0:
Register 0xc6f0 : 0x00120012

REG-Idx(0369)[MAC_EEPROM_DOWN_LOAD_PHY_POS] bit_offset = 0:
Register 0xc6f4 : 0x00120012

REG-Idx(0370)[MAC_EEPROM_DOWN_LOAD_GROUP_MAC_POS] bit_offset = 0:
Register 0xc6f8 : 0x00120012

REG-Idx(0371)[SMI_GLB_CTRL] bit_offset = 0:
Register 0xca00 : 0x0f895500

REG-Idx(0372)[SMI_MAC_TYPE_CTRL] bit_offset = 0:
Register 0xca04 : 0x000095df

REG-Idx(0373)[SMI_PORT0_15_POLLING_SEL] bit_offset = 0:
Register 0xca08 : 0x55540000

REG-Idx(0374)[SMI_PORT16_27_POLLING_SEL] bit_offset = 0:
Register 0xca0c : 0x00f0a8a8

REG-Idx(0375)[SMI_PRVTE_POLLING_CTRL] bit_offset = 0:
Register 0xca10 : 0x00000000

REG-Idx(0376)[MDIO_FREE_CNT_CTRL] bit_offset = 0:
Register 0xca14 : 0x00000259

REG-Idx(0377)[SMI_10GPHY_POLLING_SEL_0] bit_offset = 0:
Register 0xca18 : 0x001fa434

REG-Idx(0378)[MAC_FORCE_MODE_CTRL] bit_offset = 32:
Register 0xca1c : 0x00000194
Register 0xca20 : 0x00000194
Register 0xca24 : 0x00000194
Register 0xca28 : 0x00000194
Register 0xca2c : 0x00000194
Register 0xca30 : 0x00000194
Register 0xca34 : 0x00000194
Register 0xca38 : 0x00000194
Register 0xca3c : 0x0000fd94
Register 0xca40 : 0x00000194
Register 0xca44 : 0x00000194
Register 0xca48 : 0x00000194
Register 0xca4c : 0x00000194
Register 0xca50 : 0x00000194
Register 0xca54 : 0x00000194
Register 0xca58 : 0x00000194
Register 0xca5c : 0x0000fd94
Register 0xca60 : 0x00000194
Register 0xca64 : 0x00000194
Register 0xca68 : 0x00000194
Register 0xca6c : 0x0000fd94
Register 0xca70 : 0x00000194
Register 0xca74 : 0x00000194
Register 0xca78 : 0x00000194
Register 0xca7c : 0x0000fd94
Register 0xca80 : 0x0000fd94
Register 0xca84 : 0x00000194
Register 0xca88 : 0x00000194
Register 0xca8c : 0x00000217

REG-Idx(0379)[SMI_POLL_CTRL] bit_offset = 0:
Register 0xca90 : 0x03110100

REG-Idx(0380)[SMI_REG_CHK1_CTRL0] bit_offset = 0:
Register 0xca94 : 0x00000000

REG-Idx(0381)[SMI_REG_CHK1_CTRL1] bit_offset = 0:
Register 0xca98 : 0x00000000

REG-Idx(0382)[SMI_REG_CHK1_PMSK] bit_offset = 0:
Register 0xca9c : 0x00000000

REG-Idx(0383)[SMI_REG_CHK1_DATA] bit_offset = 0:
Register 0xcaa0 : 0x00000000

REG-Idx(0384)[SMI_REG_CHK1_DATA_10G] bit_offset = 0:
Register 0xcaa4 : 0x00000000

REG-Idx(0385)[SMI_REG_CHK1_RESULT] bit_offset = 0:
Register 0xcaa8 : 0x00000000

REG-Idx(0386)[SMI_REG_CHK2_CTRL0] bit_offset = 0:
Register 0xcaac : 0x00000000

REG-Idx(0387)[SMI_REG_CHK2_CTRL1] bit_offset = 0:
Register 0xcab0 : 0x00000000

REG-Idx(0388)[SMI_REG_CHK2_PMSK] bit_offset = 0:
Register 0xcab4 : 0x00000000

REG-Idx(0389)[SMI_REG_CHK2_DATA] bit_offset = 0:
Register 0xcab8 : 0x00000000

REG-Idx(0390)[SMI_REG_CHK2_DATA_10G] bit_offset = 0:
Register 0xcabc : 0x00000000

REG-Idx(0391)[SMI_REG_CHK2_RESULT] bit_offset = 0:
Register 0xcac0 : 0x00000000

REG-Idx(0392)[SMI_REG_CHK3_CTRL0] bit_offset = 0:
Register 0xcac4 : 0x00000000

REG-Idx(0393)[SMI_REG_CHK3_CTRL1] bit_offset = 0:
Register 0xcac8 : 0x00000000

REG-Idx(0394)[SMI_REG_CHK3_PMSK] bit_offset = 0:
Register 0xcacc : 0x00000000

REG-Idx(0395)[SMI_REG_CHK3_DATA] bit_offset = 0:
Register 0xcad0 : 0x00000000

REG-Idx(0396)[SMI_REG_CHK3_DATA_10G] bit_offset = 0:
Register 0xcad4 : 0x00000000

REG-Idx(0397)[SMI_REG_CHK3_RESULT] bit_offset = 0:
Register 0xcad8 : 0x00000000

REG-Idx(0398)[SMI_REG_CHK4_CTRL0] bit_offset = 0:
Register 0xcadc : 0x00000000

REG-Idx(0399)[SMI_REG_CHK4_CTRL1] bit_offset = 0:
Register 0xcae0 : 0x00000000

REG-Idx(0400)[SMI_REG_CHK4_PMSK] bit_offset = 0:
Register 0xcae4 : 0x00000000

REG-Idx(0401)[SMI_REG_CHK4_DATA] bit_offset = 0:
Register 0xcae8 : 0x00000000

REG-Idx(0402)[SMI_REG_CHK4_DATA_10G] bit_offset = 0:
Register 0xcaec : 0x00000000

REG-Idx(0403)[SMI_REG_CHK4_RESULT] bit_offset = 0:
Register 0xcaf0 : 0x00000000

REG-Idx(0404)[SMI_REG_CHK5_CTRL0] bit_offset = 0:
Register 0xcaf4 : 0x00000000

REG-Idx(0405)[SMI_REG_CHK5_CTRL1] bit_offset = 0:
Register 0xcaf8 : 0x00000000

REG-Idx(0406)[SMI_REG_CHK5_PMSK] bit_offset = 0:
Register 0xcafc : 0x00000000

REG-Idx(0407)[SMI_REG_CHK5_DATA] bit_offset = 0:
Register 0xcb00 : 0x00000000

REG-Idx(0408)[SMI_REG_CHK5_DATA_10G] bit_offset = 0:
Register 0xcb04 : 0x00000000

REG-Idx(0409)[SMI_REG_CHK5_RESULT] bit_offset = 0:
Register 0xcb08 : 0x00000000

REG-Idx(0410)[LINK_DELAY_CTRL] bit_offset = 0:
Register 0xcb0c : 0x0000002a

REG-Idx(0411)[MAC_LINK_STS] bit_offset = 0:
Register 0xcb10 : 0x10000100

REG-Idx(0412)[MAC_LINK_MEDIA_STS] bit_offset = 0:
Register 0xcb14 : 0x00000000

REG-Idx(0413)[MAC_LINK_SPD_STS] bit_offset = 4: port = (0~28), array = (0~0)
Register 0xcb18 : 0x00000000
Register 0xcb1c : 0x00000002
Register 0xcb20 : 0x00000000
Register 0xcb24 : 0x00020000

REG-Idx(0414)[MAC_LINK_DUP_STS] bit_offset = 0:
Register 0xcb28 : 0x10000100

REG-Idx(0415)[MAC_TX_PAUSE_STS] bit_offset = 0:
Register 0xcb2c : 0x00000000

REG-Idx(0416)[MAC_RX_PAUSE_STS] bit_offset = 0:
Register 0xcb30 : 0x00000000

REG-Idx(0417)[MAC_EEE_ABLTY] bit_offset = 0:
Register 0xcb34 : 0x00000000

REG-Idx(0418)[MAC_MSTR_SLV_STS] bit_offset = 0:
Register 0xcb38 : 0x00000000

REG-Idx(0419)[MAC_MSTR_SLV_FAULT_STS] bit_offset = 0:
Register 0xcb3c : 0x00000000

REG-Idx(0420)[PHY_LINK_STS] bit_offset = 0:
Register 0xcb40 : 0x00000100

REG-Idx(0421)[PHY_LINK_MEDIA_STS] bit_offset = 0:
Register 0xcb44 : 0x00000000

REG-Idx(0422)[PHY_LINK_SPD_STS] bit_offset = 4: port = (0~27), array = (0~0)
Register 0xcb48 : 0x00000000
Register 0xcb4c : 0x00000002
Register 0xcb50 : 0x00000000
Register 0xcb54 : 0x00000000

REG-Idx(0423)[PHY_LINK_DUP_STS] bit_offset = 0:
Register 0xcb58 : 0x00000100

REG-Idx(0424)[PHY_TX_PAUSE_STS] bit_offset = 0:
Register 0xcb5c : 0x00000000

REG-Idx(0425)[PHY_RX_PAUSE_STS] bit_offset = 0:
Register 0xcb60 : 0x00000000

REG-Idx(0426)[PHY_EEE_ABLTY] bit_offset = 0:
Register 0xcb64 : 0x00000000

REG-Idx(0427)[PHY_MSTR_SLV_STS] bit_offset = 0:
Register 0xcb68 : 0x00000000

REG-Idx(0428)[PHY_MSTR_SLV_FAULT_STS] bit_offset = 0:
Register 0xcb6c : 0x00000000

REG-Idx(0429)[SMI_ACCESS_PHY_CTRL_0] bit_offset = 0:
Register 0xcb70 : 0x00000100

REG-Idx(0430)[SMI_ACCESS_PHY_CTRL_1] bit_offset = 0:
Register 0xcb74 : 0x00000006

REG-Idx(0431)[SMI_ACCESS_PHY_CTRL_2] bit_offset = 0:
Register 0xcb78 : 0x0010c1e1

REG-Idx(0432)[SMI_ACCESS_PHY_CTRL_3] bit_offset = 0:
Register 0xcb7c : 0x0001a83b

REG-Idx(0433)[SMI_PORT0_5_ADDR_CTRL] bit_offset = 0:
Register 0xcb80 : 0x0a418820

REG-Idx(0434)[SMI_PORT6_11_ADDR_CTRL] bit_offset = 0:
Register 0xcb84 : 0x16a490e6

REG-Idx(0435)[SMI_PORT12_17_ADDR_CTRL] bit_offset = 0:
Register 0xcb88 : 0x2207b9ac

REG-Idx(0436)[SMI_PORT18_23_ADDR_CTRL] bit_offset = 0:
Register 0xcb8c : 0x2f6a8672

REG-Idx(0437)[SMI_PORT24_27_ADDR_CTRL] bit_offset = 0:
Register 0xcb90 : 0x000de862

REG-Idx(0438)[SDS_MODE_ADJ_CTRL] bit_offset = 0:
Register 0xcb94 : 0x00000000

REG-Idx(0439)[SMI_CTRL] bit_offset = 0:
Register 0xcb98 : 0x00f00000

REG-Idx(0440)[MAC_EFUSE_CTRL] bit_offset = 0:
Register 0xc6fc : 0x0003fffe

REG-Idx(0441)[BONDING_REDEFINE_REG] bit_offset = 0:
Register 0x7c : 0x0001fffe

REG-Idx(0442)[MAC_L2_GLOBAL_CTRL0] bit_offset = 0:
Register 0xc700 : 0xc2d4014a

REG-Idx(0443)[MAC_L2_GLOBAL_CTRL1] bit_offset = 0:
Register 0xc704 : 0x00000028

REG-Idx(0444)[MAC_L2_PORT_CTRL] bit_offset = 32:
Register 0x3268 : 0x00000033
Register 0x3368 : 0x00000000
Register 0x3468 : 0x00000033
Register 0x3568 : 0x00000000
Register 0x3668 : 0x00000033
Register 0x3768 : 0x00000033
Register 0x3868 : 0x00000033
Register 0x3968 : 0x00000033
Register 0x3a68 : 0x00000000
Register 0x3b68 : 0x00000000
Register 0x3c68 : 0x000fffff
Register 0x3d68 : 0x00000000
Register 0x3e68 : 0x000fffff
Register 0x3f68 : 0x000fffff
Register 0x4068 : 0x00000000
Register 0x4168 : 0x000fffff
Register 0x4268 : 0x000fffff
Register 0x4368 : 0x00000000
Register 0x4468 : 0x000fffff
Register 0x4568 : 0x000fffff
Register 0x4668 : 0x00000000
Register 0x4768 : 0x000fffff
Register 0x4868 : 0x000fffff
Register 0x4968 : 0x00000000
Register 0x4a68 : 0x000fffff
Register 0x4b68 : 0x000fffff
Register 0x4c68 : 0x00000000
Register 0x4d68 : 0x000fffff
Register 0x4e68 : 0x000fffff

REG-Idx(0445)[MAC_L2_PADDING_SEL] bit_offset = 0:
Register 0xc708 : 0x00000000

REG-Idx(0446)[MAC_L2_CPU_PORT_CTRL] bit_offset = 0:
Register 0xc70c : 0x00000000

REG-Idx(0447)[MAC_L2_CPU_TAG_ID_CTRL] bit_offset = 0:
Register 0xc710 : 0x00008899

REG-Idx(0448)[MAC_L2_ADDR_CTRL] bit_offset = 64:
Register 0xc714 : 0x0000782d
Register 0xc718 : 0x7e13eebc

REG-Idx(0449)[MAC_L2_PORT_MAX_LEN_CTRL] bit_offset = 32:
Register 0x326c : 0x0c003000
Register 0x336c : 0x00000000
Register 0x346c : 0x0c003000
Register 0x356c : 0x00000000
Register 0x366c : 0x0c003000
Register 0x376c : 0x0c003000
Register 0x386c : 0x0c003000
Register 0x396c : 0x0c003000
Register 0x3a6c : 0x00000000
Register 0x3b6c : 0x00000000
Register 0x3c6c : 0x00008000
Register 0x3d6c : 0x00000000
Register 0x3e6c : 0x000fffff
Register 0x3f6c : 0x00008000
Register 0x406c : 0x00000000
Register 0x416c : 0x000fffff
Register 0x426c : 0x00008000
Register 0x436c : 0x00000000
Register 0x446c : 0x000fffff
Register 0x456c : 0x00008000
Register 0x466c : 0x00000000
Register 0x476c : 0x000fffff
Register 0x486c : 0x00004000
Register 0x496c : 0x00000000
Register 0x4a6c : 0x000fffff
Register 0x4b6c : 0x00008000
Register 0x4c6c : 0x00000000
Register 0x4d6c : 0x000fffff
Register 0x4e6c : 0x00008000

REG-Idx(0450)[MAC_L2_CPU_MAX_LEN_CTRL] bit_offset = 0:
Register 0xa3a0 : 0x00000600

REG-Idx(0451)[MAC_SSC_CTRL_0] bit_offset = 0:
Register 0x280 : 0x00000000

REG-Idx(0452)[MAC_SSC_CTRL_1] bit_offset = 0:
Register 0x284 : 0x00000000

REG-Idx(0453)[MAC_SSC_CTRL_2] bit_offset = 0:
Register 0x288 : 0x00000000

REG-Idx(0454)[MAC_SSC_CTRL_3] bit_offset = 0:
Register 0x28c : 0x00000000

REG-Idx(0455)[MAC_SSC_CTRL_4] bit_offset = 0:
Register 0x290 : 0x00000000

REG-Idx(0456)[EXT_SMI_ACCESS_CTRL] bit_offset = 0:
Register 0xcb9c : 0x00000000

REG-Idx(0457)[DMY_REG0_PER_PORT_MAC] bit_offset = 32:
Register 0x3270 : 0x00000000
Register 0x3370 : 0x00000000
Register 0x3470 : 0x00000000
Register 0x3570 : 0x00000000
Register 0x3670 : 0x00000000
Register 0x3770 : 0x00000000
Register 0x3870 : 0x00000000
Register 0x3970 : 0x00000000
Register 0x3a70 : 0x00000000
Register 0x3b70 : 0x00000000
Register 0x3c70 : 0x000fffff
Register 0x3d70 : 0x00000000
Register 0x3e70 : 0x000fffff
Register 0x3f70 : 0x000fffff
Register 0x4070 : 0x00000000
Register 0x4170 : 0x000fffff
Register 0x4270 : 0x000fffff
Register 0x4370 : 0x00000000
Register 0x4470 : 0x000fffff
Register 0x4570 : 0x000fffff
Register 0x4670 : 0x00000000
Register 0x4770 : 0x000fffff
Register 0x4870 : 0x000fffff
Register 0x4970 : 0x00000000
Register 0x4a70 : 0x000fffff
Register 0x4b70 : 0x000fffff
Register 0x4c70 : 0x00000000
Register 0x4d70 : 0x000fffff
Register 0x4e70 : 0x000fffff

REG-Idx(0458)[DMY_REG0_ALE_GLB] bit_offset = 0:
Register 0xa3a4 : 0x00000000

REG-Idx(0459)[DMY_REG1_GLB_CTRL] bit_offset = 0:
Register 0xc71c : 0x00000000

REG-Idx(0460)[DMY_REG0_SMI_CTRL] bit_offset = 0:
Register 0xcba0 : 0x00000000

REG-Idx(0461)[DMY_REG0_CHIP_AFE] bit_offset = 0:
Register 0xe288 : 0x00000000

REG-Idx(0462)[RLFD_CTRL] bit_offset = 0:
Register 0xcba4 : 0x00000000

REG-Idx(0463)[RLFD_10G_ADDR] bit_offset = 0:
Register 0xcba8 : 0x00000000

REG-Idx(0464)[UNI_DIR_CTRL] bit_offset = 0:
Register 0xcbac : 0x00000000

REG-Idx(0465)[SMI_10GPHY_POLLING_SEL_1] bit_offset = 0:
Register 0xcbb0 : 0x001fa435

REG-Idx(0466)[SMI_10GPHY_POLLING_REG0_CFG] bit_offset = 0:
Register 0xcbb4 : 0x0107ffe0

REG-Idx(0467)[SMI_10GPHY_POLLING_REG9_CFG] bit_offset = 0:
Register 0xcbb8 : 0x0127ffe9

REG-Idx(0468)[SMI_10GPHY_POLLING_REG10_CFG] bit_offset = 0:
Register 0xcbbc : 0x0167ffea

REG-Idx(0469)[FIB0_INTF_CTRL] bit_offset = 8: port = (0~3), array = (0~0)
Register 0x184 : 0x1b1b1b1b

REG-Idx(0470)[FIB4_INTF_CTRL] bit_offset = 8: port = (4~9), array = (0~0)
Register 0x294 : 0x1b1b1b1b
Register 0x298 : 0x00001b1b

REG-Idx(0471)[FIB10_INTF_CTRL] bit_offset = 8: port = (10~11), array = (0~0)
Register 0x188 : 0x00001b1b

REG-Idx(0472)[SDS_CFG_REG0] bit_offset = 0:
Register 0x18c : 0x00000000

REG-Idx(0473)[SDS_CFG_REG1] bit_offset = 0:
Register 0x29c : 0x00000000

REG-Idx(0474)[SDS_CFG_REG2] bit_offset = 0:
Register 0x190 : 0x00000000

REG-Idx(0475)[SDS_MODE_SEL_0] bit_offset = 0:
Register 0x194 : 0x0035f7df

REG-Idx(0476)[SDS_MODE_SEL_1] bit_offset = 0:
Register 0x2a0 : 0x0034d34d

REG-Idx(0477)[SDS_MODE_SEL_2] bit_offset = 0:
Register 0x2a4 : 0x000007df

REG-Idx(0478)[SDS_MODE_SEL_3] bit_offset = 0:
Register 0x198 : 0x000007df

REG-Idx(0479)[SDS_INDACS_CMD] bit_offset = 0:
Register 0x3b0 : 0x0003c09c

REG-Idx(0480)[SDS_INDACS_DATA] bit_offset = 0:
Register 0x3b4 : 0x00000100

REG-Idx(0481)[SDS_OUI] bit_offset = 0:
Register 0x80 : 0x00000732

REG-Idx(0482)[SDS_VERSION] bit_offset = 0:
Register 0x84 : 0x000002a0

REG-Idx(0483)[SDS_INTF_CTRL0] bit_offset = 32:
Register 0x19c : 0x00000000
Register 0x1a0 : 0x00000000
Register 0x1a4 : 0x00800000
Register 0x1a8 : 0x00800000

REG-Idx(0484)[SDS_INTF_CTRL1] bit_offset = 32:
Register 0x2a8 : 0x00800000
Register 0x2ac : 0x00800000
Register 0x2b0 : 0x00800000
Register 0x2b4 : 0x00800000
Register 0x2b8 : 0x00800000
Register 0x2bc : 0x00800000

REG-Idx(0485)[SDS_INTF_CTRL2] bit_offset = 32:
Register 0x1ac : 0x00000400
Register 0x1b0 : 0x00000400

REG-Idx(0486)[WRAP_SDS_INTF_CTRL0] bit_offset = 32:
Register 0x1b4 : 0x00000000
Register 0x1b8 : 0x00000000

REG-Idx(0487)[WRAP_SDS_INTF_CTRL1] bit_offset = 32:
Register 0x2c0 : 0x00000000
Register 0x2c4 : 0x00000000
Register 0x2c8 : 0x00000000

REG-Idx(0488)[WRAP_SDS_INTF_CTRL3] bit_offset = 0:
Register 0x1bc : 0x00000000

REG-Idx(0489)[WRAP_SDS_INTF_CTRL4] bit_offset = 32:
Register 0x1c0 : 0x00000000
Register 0x1c4 : 0x00000000

REG-Idx(0490)[WRAP_SDS_INTF_CTRL5] bit_offset = 32:
Register 0x2cc : 0x00000000
Register 0x2d0 : 0x00000000
Register 0x2d4 : 0x00000000

REG-Idx(0491)[WRAP_SDS_INTF_CTRL6] bit_offset = 0:
Register 0x1c8 : 0x00010100

REG-Idx(0492)[RG2X_RG1X_CEN] bit_offset = 0:
Register 0xe28c : 0x85000f0d

REG-Idx(0493)[RG0X_CEN_RTT] bit_offset = 0:
Register 0xe290 : 0x000c0c8c

REG-Idx(0494)[SDS_SUBMODE_CTRL0] bit_offset = 0:
Register 0x1cc : 0x00000000

REG-Idx(0495)[SDS_SUBMODE_CTRL1] bit_offset = 0:
Register 0x2d8 : 0x00000000

REG-Idx(0496)[DMY_REG0_CHIP_CHIP_AFE] bit_offset = 0:
Register 0xe294 : 0x00000000

REG-Idx(0497)[EEE_TX_Q_CTRL] bit_offset = 0:
Register 0x78dc : 0x00020000

REG-Idx(0498)[EEE_TX_MINIFG_CTRL0] bit_offset = 0:
Register 0xc720 : 0x00140020

REG-Idx(0499)[EEE_TX_MINIFG_CTRL1] bit_offset = 0:
Register 0xc724 : 0x0271003f

REG-Idx(0500)[EEE_TX_MINIFG_CTRL2] bit_offset = 0:
Register 0xc728 : 0x0139009c

REG-Idx(0501)[EEE_TX_CTRL] bit_offset = 0:
Register 0xc72c : 0x00000c22

REG-Idx(0502)[EEE_TX_TIMER_100M_CTRL] bit_offset = 0:
Register 0xc730 : 0x00012c1e

REG-Idx(0503)[EEE_TX_TIMER_GELITE_CTRL] bit_offset = 0:
Register 0xc734 : 0x012c0522

REG-Idx(0504)[EEE_TX_TIMER_GIGA_CTRL] bit_offset = 0:
Register 0xc738 : 0x012c0511

REG-Idx(0505)[EEE_TX_TIMER_2P5G_CTRL] bit_offset = 0:
Register 0xc73c : 0x00c80f1e

REG-Idx(0506)[EEE_TX_TIMER_5G_CTRL] bit_offset = 0:
Register 0xc740 : 0x00c8000f

REG-Idx(0507)[EEE_TX_TIMER_10G_CTRL] bit_offset = 0:
Register 0xc744 : 0x00c83c08

REG-Idx(0508)[EEE_CTRL] bit_offset = 32:
Register 0x3274 : 0x00000003
Register 0x3374 : 0x00000000
Register 0x3474 : 0x00000003
Register 0x3574 : 0x00000000
Register 0x3674 : 0x00000003
Register 0x3774 : 0x00000003
Register 0x3874 : 0x00000003
Register 0x3974 : 0x00000003
Register 0x3a74 : 0x00000000
Register 0x3b74 : 0x00000000
Register 0x3c74 : 0x00008000
Register 0x3d74 : 0x00000000
Register 0x3e74 : 0x000fffff
Register 0x3f74 : 0x00008000
Register 0x4074 : 0x00000000
Register 0x4174 : 0x000fffff
Register 0x4274 : 0x00008000
Register 0x4374 : 0x00000000
Register 0x4474 : 0x000fffff
Register 0x4574 : 0x00008000
Register 0x4674 : 0x00000000
Register 0x4774 : 0x000fffff
Register 0x4874 : 0x00004000
Register 0x4974 : 0x00000000
Register 0x4a74 : 0x000fffff
Register 0x4b74 : 0x00008000
Register 0x4c74 : 0x00000000
Register 0x4d74 : 0x000fffff
Register 0x4e74 : 0x00008000

REG-Idx(0509)[EEE_RX_GELITE_CTRL] bit_offset = 0:
Register 0xc748 : 0x0000013a

REG-Idx(0510)[EEE_RX_GE_CTRL] bit_offset = 0:
Register 0xc74c : 0x0000013a

REG-Idx(0511)[EEE_RX_2P5G_CTRL] bit_offset = 0:
Register 0xc750 : 0x0000003a

REG-Idx(0512)[EEE_RX_5G_CTRL] bit_offset = 0:
Register 0xc754 : 0x0000003a

REG-Idx(0513)[EEE_RX_10G_CTRL] bit_offset = 0:
Register 0xc758 : 0x0000003a

REG-Idx(0514)[EEEP_PORT_CTRL] bit_offset = 32:
Register 0x3278 : 0x00000000
Register 0x3378 : 0x00000000
Register 0x3478 : 0x00000000
Register 0x3578 : 0x00000000
Register 0x3678 : 0x00000000
Register 0x3778 : 0x00000000
Register 0x3878 : 0x00000000
Register 0x3978 : 0x00000000
Register 0x3a78 : 0x00000000
Register 0x3b78 : 0x00000000
Register 0x3c78 : 0x000fffff
Register 0x3d78 : 0x00000000
Register 0x3e78 : 0x000fffff
Register 0x3f78 : 0x000fffff
Register 0x4078 : 0x00000000
Register 0x4178 : 0x000fffff
Register 0x4278 : 0x000fffff
Register 0x4378 : 0x00000000
Register 0x4478 : 0x000fffff
Register 0x4578 : 0x000fffff
Register 0x4678 : 0x00000000
Register 0x4778 : 0x000fffff
Register 0x4878 : 0x000fffff
Register 0x4978 : 0x00000000
Register 0x4a78 : 0x000fffff
Register 0x4b78 : 0x000fffff
Register 0x4c78 : 0x00000000
Register 0x4d78 : 0x000fffff
Register 0x4e78 : 0x000fffff

REG-Idx(0515)[EEEP_GBL_CTRL] bit_offset = 0:
Register 0xc75c : 0x00000000

REG-Idx(0516)[EEEP_TIMER_UNIT_CTRL] bit_offset = 0:
Register 0xc760 : 0x00000015

REG-Idx(0517)[EEEP_TX_RATE_100M_CTRL] bit_offset = 0:
Register 0xc764 : 0x00001411

REG-Idx(0518)[EEEP_TX_RATE_500M_CTRL] bit_offset = 0:
Register 0xc768 : 0x00001411

REG-Idx(0519)[EEEP_TX_RATE_GIGA_CTRL] bit_offset = 0:
Register 0xc76c : 0x00001411

REG-Idx(0520)[EEEP_TX_WAKE_TIMER_CTRL] bit_offset = 0:
Register 0xc770 : 0x00040404

REG-Idx(0521)[EEEP_RX_RATE_100M_CTRL] bit_offset = 0:
Register 0xc774 : 0x00001410

REG-Idx(0522)[EEEP_RX_RATE_500M_CTRL] bit_offset = 0:
Register 0xc778 : 0x00001410

REG-Idx(0523)[EEEP_RX_RATE_GIGA_CTRL] bit_offset = 0:
Register 0xc77c : 0x00001410

REG-Idx(0524)[EEEP_RX_SLEEP_STEP_CTRL] bit_offset = 0:
Register 0xc780 : 0x00000001

REG-Idx(0525)[EEEP_RX_TIMER_100M_CTRL] bit_offset = 0:
Register 0xc784 : 0x3c14ff28

REG-Idx(0526)[EEEP_RX_TIMER_500M_CTRL0] bit_offset = 0:
Register 0xc788 : 0x4214ff28

REG-Idx(0527)[EEEP_RX_TIMER_500M_CTRL1] bit_offset = 0:
Register 0xc78c : 0x00000042

REG-Idx(0528)[EEEP_RX_TIMER_GIGA_CTRL0] bit_offset = 0:
Register 0xc790 : 0x2214ff28

REG-Idx(0529)[EEEP_RX_TIMER_GIGA_CTRL1] bit_offset = 0:
Register 0xc794 : 0x00000022

REG-Idx(0530)[EEEP_RX_IDLE_TIMER_CTRL] bit_offset = 0:
Register 0xc798 : 0x00080808

REG-Idx(0531)[EEEP_TX_IDLE_TIMER_CTRL] bit_offset = 0:
Register 0xc79c : 0x00040404

REG-Idx(0532)[PS_GATCLK_MASK] bit_offset = 0:
Register 0xc7a0 : 0x0fffffff

REG-Idx(0533)[PS_GATCLK_EN] bit_offset = 0:
Register 0xc7a4 : 0x0000003f

REG-Idx(0534)[PS_GATCLK_CTRL] bit_offset = 0:
Register 0xc7a8 : 0x00000000

REG-Idx(0535)[PS_SOC_CTRL] bit_offset = 0:
Register 0x104 : 0x00000000

REG-Idx(0536)[DMY_REG0_CHIP_MISC_T] bit_offset = 0:
Register 0x108 : 0x00000000

REG-Idx(0537)[VLAN_TAG_TPID_CTRL] bit_offset = 32:
Register 0xc7ac : 0x88a88100
Register 0xc7b0 : 0x88a88100
Register 0xc7b4 : 0x88a88100
Register 0xc7b8 : 0x88a88100

REG-Idx(0538)[VLAN_ETAG_TPID_CTRL] bit_offset = 0:
Register 0xd67c : 0x00008100

REG-Idx(0539)[VLAN_PORT_ITAG_TPID_CMP_MSK] bit_offset = 32:
Register 0x327c : 0x00000001
Register 0x337c : 0x00000000
Register 0x347c : 0x00000001
Register 0x357c : 0x00000000
Register 0x367c : 0x00000001
Register 0x377c : 0x00000001
Register 0x387c : 0x00000001
Register 0x397c : 0x00000001
Register 0x3a7c : 0x00000000
Register 0x3b7c : 0x00000000
Register 0x3c7c : 0x00008000
Register 0x3d7c : 0x00000000
Register 0x3e7c : 0x000fffff
Register 0x3f7c : 0x00008000
Register 0x407c : 0x00000000
Register 0x417c : 0x000fffff
Register 0x427c : 0x00008000
Register 0x437c : 0x00000000
Register 0x447c : 0x000fffff
Register 0x457c : 0x00008000
Register 0x467c : 0x00000000
Register 0x477c : 0x000fffff
Register 0x487c : 0x00004000
Register 0x497c : 0x00000000
Register 0x4a7c : 0x000fffff
Register 0x4b7c : 0x00008000
Register 0x4c7c : 0x00000000
Register 0x4d7c : 0x000fffff
Register 0x4e7c : 0x00008000

REG-Idx(0540)[VLAN_PORT_OTAG_TPID_CMP_MSK] bit_offset = 32:
Register 0x3280 : 0x00000000
Register 0x3380 : 0x00000000
Register 0x3480 : 0x00000000
Register 0x3580 : 0x00000000
Register 0x3680 : 0x00000000
Register 0x3780 : 0x00000000
Register 0x3880 : 0x00000000
Register 0x3980 : 0x00000000
Register 0x3a80 : 0x00000000
Register 0x3b80 : 0x00000000
Register 0x3c80 : 0x000fffff
Register 0x3d80 : 0x00000000
Register 0x3e80 : 0x000fffff
Register 0x3f80 : 0x000fffff
Register 0x4080 : 0x00000000
Register 0x4180 : 0x000fffff
Register 0x4280 : 0x000fffff
Register 0x4380 : 0x00000000
Register 0x4480 : 0x000fffff
Register 0x4580 : 0x000fffff
Register 0x4680 : 0x00000000
Register 0x4780 : 0x000fffff
Register 0x4880 : 0x000fffff
Register 0x4980 : 0x00000000
Register 0x4a80 : 0x000fffff
Register 0x4b80 : 0x000fffff
Register 0x4c80 : 0x00000000
Register 0x4d80 : 0x000fffff
Register 0x4e80 : 0x000fffff

REG-Idx(0541)[VLAN_PORT_ETAG_TPID_CMP] bit_offset = 32:
Register 0xd680 : 0x00000000
Register 0xd684 : 0x00000000
Register 0xd688 : 0x00000000
Register 0xd68c : 0x00000000
Register 0xd690 : 0x00000000
Register 0xd694 : 0x00000000
Register 0xd698 : 0x00000000
Register 0xd69c : 0x00000000
Register 0xd6a0 : 0x00000000
Register 0xd6a4 : 0x00000000
Register 0xd6a8 : 0x00000000
Register 0xd6ac : 0x00000000
Register 0xd6b0 : 0x00000000
Register 0xd6b4 : 0x00000000
Register 0xd6b8 : 0x00000000
Register 0xd6bc : 0x00000000
Register 0xd6c0 : 0x00000000
Register 0xd6c4 : 0x00000000
Register 0xd6c8 : 0x00000000
Register 0xd6cc : 0x00000000
Register 0xd6d0 : 0x00000000
Register 0xd6d4 : 0x00000000
Register 0xd6d8 : 0x00000000
Register 0xd6dc : 0x00000000
Register 0xd6e0 : 0x00000000
Register 0xd6e4 : 0x00000000
Register 0xd6e8 : 0x00000000
Register 0xd6ec : 0x00000000
Register 0xd6f0 : 0x00000000

REG-Idx(0542)[VLAN_PORT_AFT] bit_offset = 32:
Register 0x8260 : 0x0000000f
Register 0x8264 : 0x0000000f
Register 0x8268 : 0x0000000f
Register 0x826c : 0x0000000f
Register 0x8270 : 0x0000000f
Register 0x8274 : 0x0000000f
Register 0x8278 : 0x0000000f
Register 0x827c : 0x0000000f
Register 0x8280 : 0x0000000f
Register 0x8284 : 0x0000000f
Register 0x8288 : 0x0000000f
Register 0x828c : 0x0000000f
Register 0x8290 : 0x0000000f
Register 0x8294 : 0x0000000f
Register 0x8298 : 0x0000000f
Register 0x829c : 0x0000000f
Register 0x82a0 : 0x0000000f
Register 0x82a4 : 0x0000000f
Register 0x82a8 : 0x0000000f
Register 0x82ac : 0x0000000f
Register 0x82b0 : 0x0000000f
Register 0x82b4 : 0x0000000f
Register 0x82b8 : 0x0000000f
Register 0x82bc : 0x0000000f
Register 0x82c0 : 0x0000000f
Register 0x82c4 : 0x0000000f
Register 0x82c8 : 0x0000000f
Register 0x82cc : 0x0000000f
Register 0x82d0 : 0x0000000f

REG-Idx(0543)[VLAN_CTRL] bit_offset = 0:
Register 0x82d4 : 0x00000000

REG-Idx(0544)[VLAN_PORT_PB_VLAN] bit_offset = 32:
Register 0x82d8 : 0x00018006
Register 0x82dc : 0x00018006
Register 0x82e0 : 0x00018006
Register 0x82e4 : 0x00018006
Register 0x82e8 : 0x00018006
Register 0x82ec : 0x00018006
Register 0x82f0 : 0x00018006
Register 0x82f4 : 0x00018006
Register 0x82f8 : 0x00018004
Register 0x82fc : 0x00018006
Register 0x8300 : 0x00018006
Register 0x8304 : 0x00018006
Register 0x8308 : 0x00018006
Register 0x830c : 0x00018006
Register 0x8310 : 0x00018006
Register 0x8314 : 0x00018006
Register 0x8318 : 0x00018004
Register 0x831c : 0x00018006
Register 0x8320 : 0x00018006
Register 0x8324 : 0x00018006
Register 0x8328 : 0x00018004
Register 0x832c : 0x00018006
Register 0x8330 : 0x00018006
Register 0x8334 : 0x00018006
Register 0x8338 : 0x00018004
Register 0x833c : 0x00018004
Register 0x8340 : 0x00018006
Register 0x8344 : 0x00018006
Register 0x8348 : 0x00010004

REG-Idx(0545)[VLAN_PORT_FWD_CTRL] bit_offset = 32:
Register 0x834c : 0x0000000c
Register 0x8350 : 0x0000000c
Register 0x8354 : 0x0000000c
Register 0x8358 : 0x0000000c
Register 0x835c : 0x0000000c
Register 0x8360 : 0x0000000c
Register 0x8364 : 0x0000000c
Register 0x8368 : 0x0000000c
Register 0x836c : 0x0000000c
Register 0x8370 : 0x0000000c
Register 0x8374 : 0x0000000c
Register 0x8378 : 0x0000000c
Register 0x837c : 0x0000000c
Register 0x8380 : 0x0000000c
Register 0x8384 : 0x0000000c
Register 0x8388 : 0x0000000c
Register 0x838c : 0x0000000c
Register 0x8390 : 0x0000000c
Register 0x8394 : 0x0000000c
Register 0x8398 : 0x0000000c
Register 0x839c : 0x0000000c
Register 0x83a0 : 0x0000000c
Register 0x83a4 : 0x0000000c
Register 0x83a8 : 0x0000000c
Register 0x83ac : 0x0000000c
Register 0x83b0 : 0x0000000c
Register 0x83b4 : 0x0000000c
Register 0x83b8 : 0x0000000c
Register 0x83bc : 0x0000000c

REG-Idx(0546)[VLAN_APP_PKT_CTRL] bit_offset = 0:
Register 0xa23c : 0x00000000

REG-Idx(0547)[VLAN_PORT_IGR_FLTR] bit_offset = 2: port = (0~28), array = (0~0)
Register 0x83c0 : 0x55555555
Register 0x83c4 : 0x00555555

REG-Idx(0548)[VLAN_PORT_EGR_FLTR] bit_offset = 1: port = (0~28), array = (0~0)
Register 0x83c8 : 0x1fffffff

REG-Idx(0549)[VLAN_PORT_TAG_STS_CTRL] bit_offset = 32:
Register 0xce24 : 0x00000000
Register 0xce28 : 0x00000000
Register 0xce2c : 0x00000000
Register 0xce30 : 0x00000000
Register 0xce34 : 0x00000000
Register 0xce38 : 0x00000000
Register 0xce3c : 0x00000000
Register 0xce40 : 0x00000000
Register 0xce44 : 0x00000000
Register 0xce48 : 0x00000000
Register 0xce4c : 0x00000000
Register 0xce50 : 0x00000000
Register 0xce54 : 0x00000000
Register 0xce58 : 0x00000000
Register 0xce5c : 0x00000000
Register 0xce60 : 0x00000000
Register 0xce64 : 0x00000000
Register 0xce68 : 0x00000000
Register 0xce6c : 0x00000000
Register 0xce70 : 0x00000000
Register 0xce74 : 0x00000000
Register 0xce78 : 0x00000000
Register 0xce7c : 0x00000000
Register 0xce80 : 0x00000000
Register 0xce84 : 0x00000000
Register 0xce88 : 0x00000000
Register 0xce8c : 0x00000000
Register 0xce90 : 0x00000000
Register 0xce94 : 0x00000000

REG-Idx(0550)[VLAN_PORT_EGR_TPID_CTRL] bit_offset = 32:
Register 0xce98 : 0x00000009
Register 0xce9c : 0x00000009
Register 0xcea0 : 0x00000009
Register 0xcea4 : 0x00000009
Register 0xcea8 : 0x00000009
Register 0xceac : 0x00000009
Register 0xceb0 : 0x00000009
Register 0xceb4 : 0x00000009
Register 0xceb8 : 0x00000009
Register 0xcebc : 0x00000009
Register 0xcec0 : 0x00000009
Register 0xcec4 : 0x00000009
Register 0xcec8 : 0x00000009
Register 0xcecc : 0x00000009
Register 0xced0 : 0x00000009
Register 0xced4 : 0x00000009
Register 0xced8 : 0x00000009
Register 0xcedc : 0x00000009
Register 0xcee0 : 0x00000009
Register 0xcee4 : 0x00000009
Register 0xcee8 : 0x00000009
Register 0xceec : 0x00000009
Register 0xcef0 : 0x00000009
Register 0xcef4 : 0x00000009
Register 0xcef8 : 0x00000009
Register 0xcefc : 0x00000009
Register 0xcf00 : 0x00000009
Register 0xcf04 : 0x00000009
Register 0xcf08 : 0x00000009

REG-Idx(0551)[DMY_REG0_VLAN] bit_offset = 0:
Register 0x83cc : 0x00000000

REG-Idx(0552)[DMY_REG1_VLAN] bit_offset = 0:
Register 0x83d0 : 0x00000000

REG-Idx(0553)[DMY_REG1_PKT_ENCAP] bit_offset = 0:
Register 0xcf0c : 0x00000000

REG-Idx(0554)[VLAN_PROFILE_SET] bit_offset = 160:
Register 0x9c60 : 0x00000000
Register 0x9c64 : 0x00000000
Register 0x9c68 : 0x0fffffff
Register 0x9c6c : 0x0fffffff
Register 0x9c70 : 0x0fffffff
Register 0x9c74 : 0x00000000
Register 0x9c78 : 0x00000000
Register 0x9c7c : 0x0fffffff
Register 0x9c80 : 0x0fffffff
Register 0x9c84 : 0x0fffffff
Register 0x9c88 : 0x00000000
Register 0x9c8c : 0x00000000
Register 0x9c90 : 0x0fffffff
Register 0x9c94 : 0x0fffffff
Register 0x9c98 : 0x0fffffff
Register 0x9c9c : 0x00000000
Register 0x9ca0 : 0x00000000
Register 0x9ca4 : 0x0fffffff
Register 0x9ca8 : 0x0fffffff
Register 0x9cac : 0x0fffffff
Register 0x9cb0 : 0x00000000
Register 0x9cb4 : 0x00000000
Register 0x9cb8 : 0x0fffffff
Register 0x9cbc : 0x0fffffff
Register 0x9cc0 : 0x0fffffff
Register 0x9cc4 : 0x00000000
Register 0x9cc8 : 0x00000000
Register 0x9ccc : 0x0fffffff
Register 0x9cd0 : 0x0fffffff
Register 0x9cd4 : 0x0fffffff
Register 0x9cd8 : 0x00000000
Register 0x9cdc : 0x00000000
Register 0x9ce0 : 0x0fffffff
Register 0x9ce4 : 0x0fffffff
Register 0x9ce8 : 0x0fffffff
Register 0x9cec : 0x00000000
Register 0x9cf0 : 0x00000000
Register 0x9cf4 : 0x0fffffff
Register 0x9cf8 : 0x0fffffff
Register 0x9cfc : 0x0fffffff

REG-Idx(0555)[DMY_REG0_VLAN_PROFILE] bit_offset = 0:
Register 0x9d00 : 0x00000000

REG-Idx(0556)[VLAN_PPB_VLAN_SET] bit_offset = 32:
Register 0x83d4 : 0x00000000
Register 0x83d8 : 0x00000000
Register 0x83dc : 0x00000000
Register 0x83e0 : 0x00000000
Register 0x83e4 : 0x00000000
Register 0x83e8 : 0x00000000
Register 0x83ec : 0x00000000
Register 0x83f0 : 0x00000000

REG-Idx(0557)[VLAN_PORT_PPB_VLAN_SET] bit_offset = 32:
Register 0x83f4 : 0x00000000
Register 0x83f8 : 0x00000000
Register 0x83fc : 0x00000000
Register 0x8400 : 0x00000000
Register 0x8404 : 0x00000000
Register 0x8408 : 0x00000000
Register 0x840c : 0x00000000
Register 0x8410 : 0x00000000
Register 0x8414 : 0x00000000
Register 0x8418 : 0x00000000
Register 0x841c : 0x00000000
Register 0x8420 : 0x00000000
Register 0x8424 : 0x00000000
Register 0x8428 : 0x00000000
Register 0x842c : 0x00000000
Register 0x8430 : 0x00000000
Register 0x8434 : 0x00000000
Register 0x8438 : 0x00000000
Register 0x843c : 0x00000000
Register 0x8440 : 0x00000000
Register 0x8444 : 0x00000000
Register 0x8448 : 0x00000000
Register 0x844c : 0x00000000
Register 0x8450 : 0x00000000
Register 0x8454 : 0x00000000
Register 0x8458 : 0x00000000
Register 0x845c : 0x00000000
Register 0x8460 : 0x00000000
Register 0x8464 : 0x00000000
Register 0x8468 : 0x00000000
Register 0x846c : 0x00000000
Register 0x8470 : 0x00000000
Register 0x8474 : 0x00000000
Register 0x8478 : 0x00000000
Register 0x847c : 0x00000000
Register 0x8480 : 0x00000000
Register 0x8484 : 0x00000000
Register 0x8488 : 0x00000000
Register 0x848c : 0x00000000
Register 0x8490 : 0x00000000
Register 0x8494 : 0x00000000
Register 0x8498 : 0x00000000
Register 0x849c : 0x00000000
Register 0x84a0 : 0x00000000
Register 0x84a4 : 0x00000000
Register 0x84a8 : 0x00000000
Register 0x84ac : 0x00000000
Register 0x84b0 : 0x00000000
Register 0x84b4 : 0x00000000
Register 0x84b8 : 0x00000000
Register 0x84bc : 0x00000000
Register 0x84c0 : 0x00000000
Register 0x84c4 : 0x00000000
Register 0x84c8 : 0x00000000
Register 0x84cc : 0x00000000
Register 0x84d0 : 0x00000000
Register 0x84d4 : 0x00000000
Register 0x84d8 : 0x00000000
Register 0x84dc : 0x00000000
Register 0x84e0 : 0x00000000
Register 0x84e4 : 0x00000000
Register 0x84e8 : 0x00000000
Register 0x84ec : 0x00000000
Register 0x84f0 : 0x00000000
Register 0x84f4 : 0x00000000
Register 0x84f8 : 0x00000000
Register 0x84fc : 0x00000000
Register 0x8500 : 0x00000000
Register 0x8504 : 0x00000000
Register 0x8508 : 0x00000000
Register 0x850c : 0x00000000
Register 0x8510 : 0x00000000
Register 0x8514 : 0x00000000
Register 0x8518 : 0x00000000
Register 0x851c : 0x00000000
Register 0x8520 : 0x00000000
Register 0x8524 : 0x00000000
Register 0x8528 : 0x00000000
Register 0x852c : 0x00000000
Register 0x8530 : 0x00000000
Register 0x8534 : 0x00000000
Register 0x8538 : 0x00000000
Register 0x853c : 0x00000000
Register 0x8540 : 0x00000000
Register 0x8544 : 0x00000000
Register 0x8548 : 0x00000000
Register 0x854c : 0x00000000
Register 0x8550 : 0x00000000
Register 0x8554 : 0x00000000
Register 0x8558 : 0x00000000
Register 0x855c : 0x00000000
Register 0x8560 : 0x00000000
Register 0x8564 : 0x00000000
Register 0x8568 : 0x00000000
Register 0x856c : 0x00000000
Register 0x8570 : 0x00000000
Register 0x8574 : 0x00000000
Register 0x8578 : 0x00000000
Register 0x857c : 0x00000000
Register 0x8580 : 0x00000000
Register 0x8584 : 0x00000000
Register 0x8588 : 0x00000000
Register 0x858c : 0x00000000
Register 0x8590 : 0x00000000
Register 0x8594 : 0x00000000
Register 0x8598 : 0x00000000
Register 0x859c : 0x00000000
Register 0x85a0 : 0x00000000
Register 0x85a4 : 0x00000000
Register 0x85a8 : 0x00000000
Register 0x85ac : 0x00000000
Register 0x85b0 : 0x00000000
Register 0x85b4 : 0x00000000
Register 0x85b8 : 0x00000000
Register 0x85bc : 0x00000000
Register 0x85c0 : 0x00000000
Register 0x85c4 : 0x00000000
Register 0x85c8 : 0x00000000
Register 0x85cc : 0x00000000
Register 0x85d0 : 0x00000000
Register 0x85d4 : 0x00000000
Register 0x85d8 : 0x00000000
Register 0x85dc : 0x00000000
Register 0x85e0 : 0x00000000
Register 0x85e4 : 0x00000000
Register 0x85e8 : 0x00000000
Register 0x85ec : 0x00000000
Register 0x85f0 : 0x00000000
Register 0x85f4 : 0x00000000
Register 0x85f8 : 0x00000000
Register 0x85fc : 0x00000000
Register 0x8600 : 0x00000000
Register 0x8604 : 0x00000000
Register 0x8608 : 0x00000000
Register 0x860c : 0x00000000
Register 0x8610 : 0x00000000
Register 0x8614 : 0x00000000
Register 0x8618 : 0x00000000
Register 0x861c : 0x00000000
Register 0x8620 : 0x00000000
Register 0x8624 : 0x00000000
Register 0x8628 : 0x00000000
Register 0x862c : 0x00000000
Register 0x8630 : 0x00000000
Register 0x8634 : 0x00000000
Register 0x8638 : 0x00000000
Register 0x863c : 0x00000000
Register 0x8640 : 0x00000000
Register 0x8644 : 0x00000000
Register 0x8648 : 0x00000000
Register 0x864c : 0x00000000
Register 0x8650 : 0x00000000
Register 0x8654 : 0x00000000
Register 0x8658 : 0x00000000
Register 0x865c : 0x00000000
Register 0x8660 : 0x00000000
Register 0x8664 : 0x00000000
Register 0x8668 : 0x00000000
Register 0x866c : 0x00000000
Register 0x8670 : 0x00000000
Register 0x8674 : 0x00000000
Register 0x8678 : 0x00000000
Register 0x867c : 0x00000000
Register 0x8680 : 0x00000000
Register 0x8684 : 0x00000000
Register 0x8688 : 0x00000000
Register 0x868c : 0x00000000
Register 0x8690 : 0x00000000
Register 0x8694 : 0x00000000
Register 0x8698 : 0x00000000
Register 0x869c : 0x00000000
Register 0x86a0 : 0x00000000
Register 0x86a4 : 0x00000000
Register 0x86a8 : 0x00000000
Register 0x86ac : 0x00000000
Register 0x86b0 : 0x00000000
Register 0x86b4 : 0x00000000
Register 0x86b8 : 0x00000000
Register 0x86bc : 0x00000000
Register 0x86c0 : 0x00000000
Register 0x86c4 : 0x00000000
Register 0x86c8 : 0x00000000
Register 0x86cc : 0x00000000
Register 0x86d0 : 0x00000000
Register 0x86d4 : 0x00000000
Register 0x86d8 : 0x00000000
Register 0x86dc : 0x00000000
Register 0x86e0 : 0x00000000
Register 0x86e4 : 0x00000000
Register 0x86e8 : 0x00000000
Register 0x86ec : 0x00000000
Register 0x86f0 : 0x00000000
Register 0x86f4 : 0x00000000
Register 0x86f8 : 0x00000000
Register 0x86fc : 0x00000000
Register 0x8700 : 0x00000000
Register 0x8704 : 0x00000000
Register 0x8708 : 0x00000000
Register 0x870c : 0x00000000
Register 0x8710 : 0x00000000
Register 0x8714 : 0x00000000
Register 0x8718 : 0x00000000
Register 0x871c : 0x00000000
Register 0x8720 : 0x00000000
Register 0x8724 : 0x00000000
Register 0x8728 : 0x00000000
Register 0x872c : 0x00000000
Register 0x8730 : 0x00000000
Register 0x8734 : 0x00000000
Register 0x8738 : 0x00000000
Register 0x873c : 0x00000000
Register 0x8740 : 0x00000000
Register 0x8744 : 0x00000000
Register 0x8748 : 0x00000000
Register 0x874c : 0x00000000
Register 0x8750 : 0x00000000
Register 0x8754 : 0x00000000
Register 0x8758 : 0x00000000
Register 0x875c : 0x00000000
Register 0x8760 : 0x00000000
Register 0x8764 : 0x00000000
Register 0x8768 : 0x00000000
Register 0x876c : 0x00000000
Register 0x8770 : 0x00000000
Register 0x8774 : 0x00000000
Register 0x8778 : 0x00000000
Register 0x877c : 0x00000000
Register 0x8780 : 0x00000000
Register 0x8784 : 0x00000000
Register 0x8788 : 0x00000000
Register 0x878c : 0x00000000
Register 0x8790 : 0x00000000

REG-Idx(0558)[DMY_REG2_VLAN] bit_offset = 0:
Register 0x8794 : 0x00000000

REG-Idx(0559)[VLAN_IGR_VID_RNG_CHK_SET_0] bit_offset = 32:
Register 0x9660 : 0x00000000
Register 0x9664 : 0x00000000
Register 0x9668 : 0x00000000
Register 0x966c : 0x00000000
Register 0x9670 : 0x00000000
Register 0x9674 : 0x00000000
Register 0x9678 : 0x00000000
Register 0x967c : 0x00000000
Register 0x9680 : 0x00000000
Register 0x9684 : 0x00000000
Register 0x9688 : 0x00000000
Register 0x968c : 0x00000000
Register 0x9690 : 0x00000000
Register 0x9694 : 0x00000000
Register 0x9698 : 0x00000000
Register 0x969c : 0x00000000
Register 0x96a0 : 0x00000000
Register 0x96a4 : 0x00000000
Register 0x96a8 : 0x00000000
Register 0x96ac : 0x00000000
Register 0x96b0 : 0x00000000
Register 0x96b4 : 0x00000000
Register 0x96b8 : 0x00000000
Register 0x96bc : 0x00000000
Register 0x96c0 : 0x00000000
Register 0x96c4 : 0x00000000
Register 0x96c8 : 0x00000000
Register 0x96cc : 0x00000000
Register 0x96d0 : 0x00000000
Register 0x96d4 : 0x00000000
Register 0x96d8 : 0x00000000
Register 0x96dc : 0x00000000

REG-Idx(0560)[VLAN_IGR_VID_RNG_CHK_SET_1] bit_offset = 32:
Register 0x96e0 : 0x00000000
Register 0x96e4 : 0x00000000
Register 0x96e8 : 0x00000000
Register 0x96ec : 0x00000000
Register 0x96f0 : 0x00000000
Register 0x96f4 : 0x00000000
Register 0x96f8 : 0x00000000
Register 0x96fc : 0x00000000
Register 0x9700 : 0x00000000
Register 0x9704 : 0x00000000
Register 0x9708 : 0x00000000
Register 0x970c : 0x00000000
Register 0x9710 : 0x00000000
Register 0x9714 : 0x00000000
Register 0x9718 : 0x00000000
Register 0x971c : 0x00000000
Register 0x9720 : 0x00000000
Register 0x9724 : 0x00000000
Register 0x9728 : 0x00000000
Register 0x972c : 0x00000000
Register 0x9730 : 0x00000000
Register 0x9734 : 0x00000000
Register 0x9738 : 0x00000000
Register 0x973c : 0x00000000
Register 0x9740 : 0x00000000
Register 0x9744 : 0x00000000
Register 0x9748 : 0x00000000
Register 0x974c : 0x00000000
Register 0x9750 : 0x00000000
Register 0x9754 : 0x00000000
Register 0x9758 : 0x00000000
Register 0x975c : 0x00000000

REG-Idx(0561)[VLAN_EGR_VID_RNG_CHK_SET_0] bit_offset = 32:
Register 0xcf10 : 0x00000000
Register 0xcf14 : 0x00000000
Register 0xcf18 : 0x00000000
Register 0xcf1c : 0x00000000
Register 0xcf20 : 0x00000000
Register 0xcf24 : 0x00000000
Register 0xcf28 : 0x00000000
Register 0xcf2c : 0x00000000
Register 0xcf30 : 0x00000000
Register 0xcf34 : 0x00000000
Register 0xcf38 : 0x00000000
Register 0xcf3c : 0x00000000
Register 0xcf40 : 0x00000000
Register 0xcf44 : 0x00000000
Register 0xcf48 : 0x00000000
Register 0xcf4c : 0x00000000
Register 0xcf50 : 0x00000000
Register 0xcf54 : 0x00000000
Register 0xcf58 : 0x00000000
Register 0xcf5c : 0x00000000
Register 0xcf60 : 0x00000000
Register 0xcf64 : 0x00000000
Register 0xcf68 : 0x00000000
Register 0xcf6c : 0x00000000
Register 0xcf70 : 0x00000000
Register 0xcf74 : 0x00000000
Register 0xcf78 : 0x00000000
Register 0xcf7c : 0x00000000
Register 0xcf80 : 0x00000000
Register 0xcf84 : 0x00000000
Register 0xcf88 : 0x00000000
Register 0xcf8c : 0x00000000

REG-Idx(0562)[VLAN_EGR_VID_RNG_CHK_SET_1] bit_offset = 32:
Register 0xcf90 : 0x00000000
Register 0xcf94 : 0x00000000
Register 0xcf98 : 0x00000000
Register 0xcf9c : 0x00000000
Register 0xcfa0 : 0x00000000
Register 0xcfa4 : 0x00000000
Register 0xcfa8 : 0x00000000
Register 0xcfac : 0x00000000
Register 0xcfb0 : 0x00000000
Register 0xcfb4 : 0x00000000
Register 0xcfb8 : 0x00000000
Register 0xcfbc : 0x00000000
Register 0xcfc0 : 0x00000000
Register 0xcfc4 : 0x00000000
Register 0xcfc8 : 0x00000000
Register 0xcfcc : 0x00000000
Register 0xcfd0 : 0x00000000
Register 0xcfd4 : 0x00000000
Register 0xcfd8 : 0x00000000
Register 0xcfdc : 0x00000000
Register 0xcfe0 : 0x00000000
Register 0xcfe4 : 0x00000000
Register 0xcfe8 : 0x00000000
Register 0xcfec : 0x00000000
Register 0xcff0 : 0x00000000
Register 0xcff4 : 0x00000000
Register 0xcff8 : 0x00000000
Register 0xcffc : 0x00000000
Register 0xd000 : 0x00000000
Register 0xd004 : 0x00000000
Register 0xd008 : 0x00000000
Register 0xd00c : 0x00000000

REG-Idx(0563)[DMY_REG0_VLAN_IVC] bit_offset = 0:
Register 0x9760 : 0x00000000

REG-Idx(0564)[VLAN_IVC_BLK_CTRL] bit_offset = 2: port = (0~0), array = (0~7)
Register 0x9764 : 0x00000000

REG-Idx(0565)[VLAN_PORT_L2TBL_CNVT_CTRL] bit_offset = 32:
Register 0x8e60 : 0x00000000
Register 0x8e64 : 0x00000000
Register 0x8e68 : 0x00000000
Register 0x8e6c : 0x00000000
Register 0x8e70 : 0x00000000
Register 0x8e74 : 0x00000000
Register 0x8e78 : 0x00000000
Register 0x8e7c : 0x00000000
Register 0x8e80 : 0x00000000
Register 0x8e84 : 0x00000000
Register 0x8e88 : 0x00000000
Register 0x8e8c : 0x00000000
Register 0x8e90 : 0x00000000
Register 0x8e94 : 0x00000000
Register 0x8e98 : 0x00000000
Register 0x8e9c : 0x00000000
Register 0x8ea0 : 0x00000000
Register 0x8ea4 : 0x00000000
Register 0x8ea8 : 0x00000000
Register 0x8eac : 0x00000000
Register 0x8eb0 : 0x00000000
Register 0x8eb4 : 0x00000000
Register 0x8eb8 : 0x00000000
Register 0x8ebc : 0x00000000
Register 0x8ec0 : 0x00000000
Register 0x8ec4 : 0x00000000
Register 0x8ec8 : 0x00000000
Register 0x8ecc : 0x00000000
Register 0x8ed0 : 0x00000000

REG-Idx(0566)[VLAN_TRUNK_L2TBL_CNVT_CTRL] bit_offset = 32:
Register 0x8ed4 : 0x00000000
Register 0x8ed8 : 0x00000000
Register 0x8edc : 0x00000000
Register 0x8ee0 : 0x00000000
Register 0x8ee4 : 0x00000000
Register 0x8ee8 : 0x00000000
Register 0x8eec : 0x00000000
Register 0x8ef0 : 0x00000000
Register 0x8ef4 : 0x00000000
Register 0x8ef8 : 0x00000000
Register 0x8efc : 0x00000000
Register 0x8f00 : 0x00000000
Register 0x8f04 : 0x00000000
Register 0x8f08 : 0x00000000
Register 0x8f0c : 0x00000000
Register 0x8f10 : 0x00000000
Register 0x8f14 : 0x00000000
Register 0x8f18 : 0x00000000
Register 0x8f1c : 0x00000000
Register 0x8f20 : 0x00000000
Register 0x8f24 : 0x00000000
Register 0x8f28 : 0x00000000
Register 0x8f2c : 0x00000000
Register 0x8f30 : 0x00000000
Register 0x8f34 : 0x00000000
Register 0x8f38 : 0x00000000
Register 0x8f3c : 0x00000000
Register 0x8f40 : 0x00000000
Register 0x8f44 : 0x00000000
Register 0x8f48 : 0x00000000
Register 0x8f4c : 0x00000000
Register 0x8f50 : 0x00000000
Register 0x8f54 : 0x00000000
Register 0x8f58 : 0x00000000
Register 0x8f5c : 0x00000000
Register 0x8f60 : 0x00000000
Register 0x8f64 : 0x00000000
Register 0x8f68 : 0x00000000
Register 0x8f6c : 0x00000000
Register 0x8f70 : 0x00000000
Register 0x8f74 : 0x00000000
Register 0x8f78 : 0x00000000
Register 0x8f7c : 0x00000000
Register 0x8f80 : 0x00000000
Register 0x8f84 : 0x00000000
Register 0x8f88 : 0x00000000
Register 0x8f8c : 0x00000000
Register 0x8f90 : 0x00000000
Register 0x8f94 : 0x00000000
Register 0x8f98 : 0x00000000
Register 0x8f9c : 0x00000000
Register 0x8fa0 : 0x00000000
Register 0x8fa4 : 0x00000000
Register 0x8fa8 : 0x00000000
Register 0x8fac : 0x00000000
Register 0x8fb0 : 0x00000000
Register 0x8fb4 : 0x00000000
Register 0x8fb8 : 0x00000000
Register 0x8fbc : 0x00000000
Register 0x8fc0 : 0x00000000
Register 0x8fc4 : 0x00000000
Register 0x8fc8 : 0x00000000
Register 0x8fcc : 0x00000000
Register 0x8fd0 : 0x00000000

REG-Idx(0567)[VLAN_IVC_CTRL] bit_offset = 32:
Register 0x9768 : 0x00000000
Register 0x976c : 0x00000000
Register 0x9770 : 0x00000000
Register 0x9774 : 0x00000000
Register 0x9778 : 0x00000000
Register 0x977c : 0x00000000
Register 0x9780 : 0x00000000
Register 0x9784 : 0x00000000
Register 0x9788 : 0x00000000
Register 0x978c : 0x00000000
Register 0x9790 : 0x00000000
Register 0x9794 : 0x00000000
Register 0x9798 : 0x00000000
Register 0x979c : 0x00000000
Register 0x97a0 : 0x00000000
Register 0x97a4 : 0x00000000
Register 0x97a8 : 0x00000000
Register 0x97ac : 0x00000000
Register 0x97b0 : 0x00000000
Register 0x97b4 : 0x00000000
Register 0x97b8 : 0x00000000
Register 0x97bc : 0x00000000
Register 0x97c0 : 0x00000000
Register 0x97c4 : 0x00000000
Register 0x97c8 : 0x00000000
Register 0x97cc : 0x00000000
Register 0x97d0 : 0x00000000
Register 0x97d4 : 0x00000000
Register 0x97d8 : 0x00000000

REG-Idx(0568)[VLAN_EVC_CTRL] bit_offset = 32:
Register 0xd010 : 0x00000000
Register 0xd014 : 0x00000000
Register 0xd018 : 0x00000000
Register 0xd01c : 0x00000000
Register 0xd020 : 0x00000000
Register 0xd024 : 0x00000000
Register 0xd028 : 0x00000000
Register 0xd02c : 0x00000000
Register 0xd030 : 0x00000000
Register 0xd034 : 0x00000000
Register 0xd038 : 0x00000000
Register 0xd03c : 0x00000000
Register 0xd040 : 0x00000000
Register 0xd044 : 0x00000000
Register 0xd048 : 0x00000000
Register 0xd04c : 0x00000000
Register 0xd050 : 0x00000000
Register 0xd054 : 0x00000000
Register 0xd058 : 0x00000000
Register 0xd05c : 0x00000000
Register 0xd060 : 0x00000000
Register 0xd064 : 0x00000000
Register 0xd068 : 0x00000000
Register 0xd06c : 0x00000000
Register 0xd070 : 0x00000000
Register 0xd074 : 0x00000000
Register 0xd078 : 0x00000000
Register 0xd07c : 0x00000000
Register 0xd080 : 0x00000000

REG-Idx(0569)[VLAN_IVC_ENTRY_INDICATION] bit_offset = 1: port = (0~0), array = (0~1023)
Register 0x97dc : 0x00000000
Register 0x97e0 : 0x00000000
Register 0x97e4 : 0x00000000
Register 0x97e8 : 0x00000000
Register 0x97ec : 0x00000000
Register 0x97f0 : 0x00000000
Register 0x97f4 : 0x00000000
Register 0x97f8 : 0x00000000
Register 0x97fc : 0x00000000
Register 0x9800 : 0x00000000
Register 0x9804 : 0x00000000
Register 0x9808 : 0x00000000
Register 0x980c : 0x00000000
Register 0x9810 : 0x00000000
Register 0x9814 : 0x00000000
Register 0x9818 : 0x00000000
Register 0x981c : 0x00000000
Register 0x9820 : 0x00000000
Register 0x9824 : 0x00000000
Register 0x9828 : 0x00000000
Register 0x982c : 0x00000000
Register 0x9830 : 0x00000000
Register 0x9834 : 0x00000000
Register 0x9838 : 0x00000000
Register 0x983c : 0x00000000
Register 0x9840 : 0x00000000
Register 0x9844 : 0x00000000
Register 0x9848 : 0x00000000
Register 0x984c : 0x00000000
Register 0x9850 : 0x00000000
Register 0x9854 : 0x00000000
Register 0x9858 : 0x00000000

REG-Idx(0570)[VLAN_EVC_ENTRY_INDICATION] bit_offset = 1: port = (0~0), array = (0~511)
Register 0xd084 : 0x00000000
Register 0xd088 : 0x00000000
Register 0xd08c : 0x00000000
Register 0xd090 : 0x00000000
Register 0xd094 : 0x00000000
Register 0xd098 : 0x00000000
Register 0xd09c : 0x00000000
Register 0xd0a0 : 0x00000000
Register 0xd0a4 : 0x00000000
Register 0xd0a8 : 0x00000000
Register 0xd0ac : 0x00000000
Register 0xd0b0 : 0x00000000
Register 0xd0b4 : 0x00000000
Register 0xd0b8 : 0x00000000
Register 0xd0bc : 0x00000000
Register 0xd0c0 : 0x00000000

REG-Idx(0571)[DMY_REG0_L2] bit_offset = 0:
Register 0x8fd4 : 0x00000000

REG-Idx(0572)[DMY_REG2_PKT_ENCAP] bit_offset = 0:
Register 0xd0c4 : 0x00000000

REG-Idx(0573)[RMA_CTRL_0] bit_offset = 0:
Register 0x9e60 : 0x45555504

REG-Idx(0574)[RMA_CTRL_1] bit_offset = 0:
Register 0x9e64 : 0x00000000

REG-Idx(0575)[RMA_CTRL_2] bit_offset = 0:
Register 0x9e68 : 0x55555555

REG-Idx(0576)[RMA_MIRROR_CTRL] bit_offset = 0:
Register 0x9e6c : 0x00000000

REG-Idx(0577)[RMA_SMAC_LRN_CTRL] bit_offset = 1: port = (0~0), array = (0~47)
Register 0x9e70 : 0xffffffff
Register 0x9e74 : 0x0000ffff

REG-Idx(0578)[RMA_MGN_LRN_CTRL] bit_offset = 0:
Register 0x9e78 : 0x00000007

REG-Idx(0579)[RMA_PORT_BPDU_CTRL] bit_offset = 3: port = (0~28), array = (0~0)
Register 0x9e7c : 0x00000000
Register 0x9e80 : 0x00000000
Register 0x9e84 : 0x00000000

REG-Idx(0580)[RMA_PORT_PTP_CTRL] bit_offset = 32:
Register 0x9e88 : 0x00000000
Register 0x9e8c : 0x00000000
Register 0x9e90 : 0x00000000
Register 0x9e94 : 0x00000000
Register 0x9e98 : 0x00000000
Register 0x9e9c : 0x00000000
Register 0x9ea0 : 0x00000000
Register 0x9ea4 : 0x00000000
Register 0x9ea8 : 0x00000000
Register 0x9eac : 0x00000000
Register 0x9eb0 : 0x00000000
Register 0x9eb4 : 0x00000000
Register 0x9eb8 : 0x00000000
Register 0x9ebc : 0x00000000
Register 0x9ec0 : 0x00000000
Register 0x9ec4 : 0x00000000
Register 0x9ec8 : 0x00000000
Register 0x9ecc : 0x00000000
Register 0x9ed0 : 0x00000000
Register 0x9ed4 : 0x00000000
Register 0x9ed8 : 0x00000000
Register 0x9edc : 0x00000000
Register 0x9ee0 : 0x00000000
Register 0x9ee4 : 0x00000000
Register 0x9ee8 : 0x00000000
Register 0x9eec : 0x00000000
Register 0x9ef0 : 0x00000000
Register 0x9ef4 : 0x00000000
Register 0x9ef8 : 0x00000000

REG-Idx(0581)[RMA_PORT_LLDP_CTRL] bit_offset = 3: port = (0~28), array = (0~0)
Register 0x9efc : 0x00000000
Register 0x9f00 : 0x00000000
Register 0x9f04 : 0x00000000

REG-Idx(0582)[RMA_PORT_EAPOL_CTRL] bit_offset = 3: port = (0~28), array = (0~0)
Register 0x9f08 : 0x00000000
Register 0x9f0c : 0x00000000
Register 0x9f10 : 0x00000000

REG-Idx(0583)[RMA_FLD_PMSK] bit_offset = 0:
Register 0x9f14 : 0x0fffffff

REG-Idx(0584)[RMA_BPDU_FLD_PMSK] bit_offset = 0:
Register 0x9f18 : 0x0fffffff

REG-Idx(0585)[RMA_EAPOL_FLD_PMSK] bit_offset = 0:
Register 0x9f1c : 0x0fffffff

REG-Idx(0586)[RMA_USR_DEF_FLD_PMSK] bit_offset = 0:
Register 0x9f20 : 0x0fffffff

REG-Idx(0587)[RMA_LLDP_FLD_PMSK] bit_offset = 0:
Register 0x9f24 : 0x0fffffff

REG-Idx(0588)[RMA_USR_DEF_CTRL] bit_offset = 160:
Register 0x9f28 : 0x00000000
Register 0x9f2c : 0x00000000
Register 0x9f30 : 0x00000000
Register 0x9f34 : 0x00000000
Register 0x9f38 : 0x00000080
Register 0x9f3c : 0x00000000
Register 0x9f40 : 0x00000000
Register 0x9f44 : 0x00000000
Register 0x9f48 : 0x00000000
Register 0x9f4c : 0x00000080
Register 0x9f50 : 0x00000000
Register 0x9f54 : 0x00000000
Register 0x9f58 : 0x00000000
Register 0x9f5c : 0x00000000
Register 0x9f60 : 0x00000080
Register 0x9f64 : 0x00000000
Register 0x9f68 : 0x00000000
Register 0x9f6c : 0x00000000
Register 0x9f70 : 0x00000000
Register 0x9f74 : 0x00000080

REG-Idx(0589)[DMY_REG0_RMA] bit_offset = 0:
Register 0x9f78 : 0x00000000

REG-Idx(0590)[TRK_ID_CTRL] bit_offset = 32:
Register 0xa3a8 : 0x00000000
Register 0xa3ac : 0x00000000
Register 0xa3b0 : 0x00000000
Register 0xa3b4 : 0x00000000
Register 0xa3b8 : 0x00000000
Register 0xa3bc : 0x00000000
Register 0xa3c0 : 0x00000000
Register 0xa3c4 : 0x00000000
Register 0xa3c8 : 0x00000000
Register 0xa3cc : 0x00000000
Register 0xa3d0 : 0x00000000
Register 0xa3d4 : 0x00000000
Register 0xa3d8 : 0x00000000
Register 0xa3dc : 0x00000000
Register 0xa3e0 : 0x00000000
Register 0xa3e4 : 0x00000000
Register 0xa3e8 : 0x00000000
Register 0xa3ec : 0x00000000
Register 0xa3f0 : 0x00000000
Register 0xa3f4 : 0x00000000
Register 0xa3f8 : 0x00000000
Register 0xa3fc : 0x00000000
Register 0xa400 : 0x00000000
Register 0xa404 : 0x00000000
Register 0xa408 : 0x00000000
Register 0xa40c : 0x00000000
Register 0xa410 : 0x00000000
Register 0xa414 : 0x00000000
Register 0xa418 : 0x00000000

REG-Idx(0591)[TRK_MBR_CTRL] bit_offset = 32:
Register 0xa41c : 0x00000000
Register 0xa420 : 0x00000000
Register 0xa424 : 0x00000000
Register 0xa428 : 0x00000000
Register 0xa42c : 0x00000000
Register 0xa430 : 0x00000000
Register 0xa434 : 0x00000000
Register 0xa438 : 0x00000000
Register 0xa43c : 0x00000000
Register 0xa440 : 0x00000000
Register 0xa444 : 0x00000000
Register 0xa448 : 0x00000000
Register 0xa44c : 0x00000000
Register 0xa450 : 0x00000000
Register 0xa454 : 0x00000000
Register 0xa458 : 0x00000000
Register 0xa45c : 0x00000000
Register 0xa460 : 0x00000000
Register 0xa464 : 0x00000000
Register 0xa468 : 0x00000000
Register 0xa46c : 0x00000000
Register 0xa470 : 0x00000000
Register 0xa474 : 0x00000000
Register 0xa478 : 0x00000000
Register 0xa47c : 0x00000000
Register 0xa480 : 0x00000000
Register 0xa484 : 0x00000000
Register 0xa488 : 0x00000000
Register 0xa48c : 0x00000000

REG-Idx(0592)[TRK_HASH_CTRL] bit_offset = 32:
Register 0x9f80 : 0x00003fff
Register 0x9f84 : 0x000003ff

REG-Idx(0593)[TRK_CTRL] bit_offset = 0:
Register 0x9f88 : 0x00000054

REG-Idx(0594)[TRK_SHFT_CTRL] bit_offset = 0:
Register 0x9f8c : 0x00000000

REG-Idx(0595)[TRK_LOCAL_TBL_REFRESH] bit_offset = 0:
Register 0x9f90 : 0x00000000

REG-Idx(0596)[TRK_LOCAL_TBL] bit_offset = 64:
Register 0x9f94 : 0x00000000
Register 0x9f98 : 0x00000000
Register 0x9f9c : 0x00000000
Register 0x9fa0 : 0x00000000
Register 0x9fa4 : 0x00000000
Register 0x9fa8 : 0x00000000
Register 0x9fac : 0x00000000
Register 0x9fb0 : 0x00000000
Register 0x9fb4 : 0x00000000
Register 0x9fb8 : 0x00000000
Register 0x9fbc : 0x00000000
Register 0x9fc0 : 0x00000000
Register 0x9fc4 : 0x00000000
Register 0x9fc8 : 0x00000000
Register 0x9fcc : 0x00000000
Register 0x9fd0 : 0x00000000
Register 0x9fd4 : 0x00000000
Register 0x9fd8 : 0x00000000
Register 0x9fdc : 0x00000000
Register 0x9fe0 : 0x00000000
Register 0x9fe4 : 0x00000000
Register 0x9fe8 : 0x00000000
Register 0x9fec : 0x00000000
Register 0x9ff0 : 0x00000000
Register 0x9ff4 : 0x00000000
Register 0x9ff8 : 0x00000000
Register 0x9ffc : 0x00000000
Register 0xa000 : 0x00000000
Register 0xa004 : 0x00000000
Register 0xa008 : 0x00000000
Register 0xa00c : 0x00000000
Register 0xa010 : 0x00000000
Register 0xa014 : 0x00000000
Register 0xa018 : 0x00000000
Register 0xa01c : 0x00000000
Register 0xa020 : 0x00000000
Register 0xa024 : 0x00000000
Register 0xa028 : 0x00000000
Register 0xa02c : 0x00000000
Register 0xa030 : 0x00000000
Register 0xa034 : 0x00000000
Register 0xa038 : 0x00000000
Register 0xa03c : 0x00000000
Register 0xa040 : 0x00000000
Register 0xa044 : 0x00000000
Register 0xa048 : 0x00000000
Register 0xa04c : 0x00000000
Register 0xa050 : 0x00000000
Register 0xa054 : 0x00000000
Register 0xa058 : 0x00000000
Register 0xa05c : 0x00000000
Register 0xa060 : 0x00000000
Register 0xa064 : 0x00000000
Register 0xa068 : 0x00000000
Register 0xa06c : 0x00000000
Register 0xa070 : 0x00000000
Register 0xa074 : 0x00000000
Register 0xa078 : 0x00000000

REG-Idx(0597)[TRK_STK_CTRL] bit_offset = 32:
Register 0xa07c : 0x00000000
Register 0xa080 : 0x00000000

REG-Idx(0598)[LOCAL_PORT_TRK_MAP] bit_offset = 32:
Register 0xd0c8 : 0x00000000
Register 0xd0cc : 0x00000000
Register 0xd0d0 : 0x00000000
Register 0xd0d4 : 0x00000000
Register 0xd0d8 : 0x00000000
Register 0xd0dc : 0x00000000
Register 0xd0e0 : 0x00000000
Register 0xd0e4 : 0x00000000
Register 0xd0e8 : 0x00000000
Register 0xd0ec : 0x00000000
Register 0xd0f0 : 0x00000000
Register 0xd0f4 : 0x00000000
Register 0xd0f8 : 0x00000000
Register 0xd0fc : 0x00000000
Register 0xd100 : 0x00000000
Register 0xd104 : 0x00000000
Register 0xd108 : 0x00000000
Register 0xd10c : 0x00000000
Register 0xd110 : 0x00000000
Register 0xd114 : 0x00000000
Register 0xd118 : 0x00000000
Register 0xd11c : 0x00000000
Register 0xd120 : 0x00000000
Register 0xd124 : 0x00000000
Register 0xd128 : 0x00000000
Register 0xd12c : 0x00000000
Register 0xd130 : 0x00000000
Register 0xd134 : 0x00000000
Register 0xd138 : 0x00000000

REG-Idx(0599)[DMY_REG0_TRUNK] bit_offset = 0:
Register 0xa084 : 0x00000000

REG-Idx(0600)[ST_CTRL] bit_offset = 0:
Register 0x8798 : 0x00000000

REG-Idx(0601)[DMY_REG3_VLAN] bit_offset = 0:
Register 0x879c : 0x00000000

REG-Idx(0602)[PORT_ISO_RESTRICT_ROUTE_CTRL] bit_offset = 0:
Register 0xa8a0 : 0x00000000

REG-Idx(0603)[PORT_ISO_VB_ISO_PMSK_CTRL] bit_offset = 64:
Register 0xa940 : 0x00000000
Register 0xa944 : 0x00000000
Register 0xa948 : 0x00000000
Register 0xa94c : 0x00000000
Register 0xa950 : 0x00000000
